Title: **.subckt ideal_bandgap_test
Date: Sun Sep 27 14:12:49  2020
Plotname: DC transfer characteristic
Flags: real
No. Variables: 27
No. Points: 101     
Variables:
	0	temp-sweep	temp-sweep
	1	v(node1)	voltage
	2	v(net1)	voltage
	3	v(node3)	voltage
	4	v(node2)	voltage
	5	v(vdd)	voltage
	6	v(sky130_fd_pr__esd_nfet_05v0_nvt.pm3)	voltage
	7	v()	voltage
	8	v(gsu_int1)	voltage
	9	i(bgsu)	current
	10	i(v1)	current
	11	i(@r1[i])	current
	12	i(@r2[i])	current
	13	i(@q.xq1.qsky130_fd_pr__pnp_05v5_w3p40l3p40[ic])	current
	14	i(@q.xq1.qsky130_fd_pr__pnp_05v5_w3p40l3p40[ie])	current
	15	i(@q.xq1.qsky130_fd_pr__pnp_05v5_w3p40l3p40[ib])	current
	16	i(@q.xq1.qsky130_fd_pr__pnp_05v5_w3p40l3p40[is])	current
	17	i(@q.xq2.qsky130_fd_pr__pnp_05v5_w3p40l3p40[ic])	current
	18	i(@q.xq2.qsky130_fd_pr__pnp_05v5_w3p40l3p40[ie])	current
	19	i(@q.xq2.qsky130_fd_pr__pnp_05v5_w3p40l3p40[ib])	current
	20	i(@q.xq2.qsky130_fd_pr__pnp_05v5_w3p40l3p40[is])	current
	21	i(@g1[i])	current
	22	i(@g2[i])	current
	23	i(@g3[i])	current
	24	@include[current]	capacitance
	25	i(@gsu[i])	current
	26	i(@bgsu[i])	current
Values:
0		-4.000000000000000e+01
	8.335022449228339e-01
	7.911863946164545e-01
	8.335022448437153e-01
	8.335022449270654e-01
	1.800000000000000e+00
	0.000000000000000e+00
	0.000000000000000e+00
	0.000000000000000e+00
	0.000000000000000e+00
	-9.181327186524868e-05
	4.231585030637942e-06
	8.335022448437153e-05
	3.800229686182925e-06
	-4.231585032516989e-06
	4.313553467140878e-07
	-3.800229683736094e-16
	3.814867795124000e-06
	-4.231666877049910e-06
	4.167990823073977e-07
	-3.814867794395722e-16
	4.231504036056322e-06
	4.231504036056322e-06
	8.335010459603609e-05
	0.000000000000000e+00
	0.000000000000000e+00
	0.000000000000000e+00
1		-3.834999999999999e+01
	8.310324637360986e-01
	7.884556521569059e-01
	8.310324636572531e-01
	8.310324637403563e-01
	1.800000000000000e+00
	0.000000000000000e+00
	0.000000000000000e+00
	0.000000000000000e+00
	0.000000000000000e+00
	-9.161839261651039e-05
	4.257681157919269e-06
	8.310324636572531e-05
	3.866547853170686e-06
	-4.299630063894357e-06
	4.330822111065350e-07
	-3.828636408110576e-16
	3.873212549842745e-06
	-4.291030258684211e-06
	4.178177092257859e-07
	-3.843208833077018e-16
	4.257705299437475e-06
	4.257705299437475e-06
	8.310319099535945e-05
	0.000000000000000e+00
	0.000000000000000e+00
	0.000000000000000e+00
2		-3.669999999999999e+01
	8.282780682220848e-01
	7.853608079668707e-01
	8.282780681435489e-01
	8.282780682263766e-01
	1.800000000000000e+00
	0.000000000000000e+00
	0.000000000000000e+00
	0.000000000000000e+00
	0.000000000000000e+00
	-9.141117334365845e-05
	4.291726025521415e-06
	8.282780681435489e-05
	3.864943081697881e-06
	-4.292405341414237e-06
	4.274622601027881e-07
	-3.864328426988386e-16
	3.878886008773366e-06
	-4.292075351500933e-06
	4.131893431154190e-07
	-3.878518624307846e-16
	4.291789146293468e-06
	4.291789146293468e-06
	8.282774466294995e-05
	0.000000000000000e+00
	0.000000000000000e+00
	0.000000000000000e+00
3		-3.504999999999998e+01
	8.256583391092811e-01
	7.824380934951369e-01
	8.256583390310374e-01
	8.256583391136031e-01
	1.800000000000000e+00
	0.000000000000000e+00
	0.000000000000000e+00
	0.000000000000000e+00
	0.000000000000000e+00
	-9.120954200625420e-05
	4.322024561414418e-06
	8.256583390310373e-05
	3.896698366515379e-06
	-4.322172727726054e-06
	4.254743616003313e-07
	-3.896564144126382e-16
	3.910705196113957e-06
	-4.322090875036408e-06
	4.113856793135136e-07
	-3.910624522664788e-16
	4.321987212563272e-06
	4.321987212563272e-06
	8.256573202913842e-05
	0.000000000000000e+00
	0.000000000000000e+00
	0.000000000000000e+00
4		-3.339999999999998e+01
	8.230337091945915e-01
	7.795119785177785e-01
	8.230337091166403e-01
	8.230337091989436e-01
	1.800000000000000e+00
	0.000000000000000e+00
	0.000000000000000e+00
	0.000000000000000e+00
	0.000000000000000e+00
	-9.100767783820629e-05
	4.352173067681298e-06
	8.230337091166404e-05
	3.928649952594726e-06
	-4.352173124857916e-06
	4.235231726560549e-07
	-3.928649899833675e-16
	3.942428136265975e-06
	-4.352014580941161e-06
	4.095864450694287e-07
	-3.942428029553944e-16
	4.352074256530614e-06
	4.352074256530614e-06
	8.230327530611703e-05
	0.000000000000000e+00
	0.000000000000000e+00
	0.000000000000000e+00
5		-3.174999999999997e+01
	8.204067026072683e-01
	7.765825401985660e-01
	8.204067025296101e-01
	8.204067026116507e-01
	1.800000000000000e+00
	0.000000000000000e+00
	0.000000000000000e+00
	0.000000000000000e+00
	0.000000000000000e+00
	-9.080511517822742e-05
	4.382416240870235e-06
	8.204067025296101e-05
	3.960807535603507e-06
	-4.382416295368884e-06
	4.216087601614581e-07
	-3.960807485460603e-16
	3.974521657327570e-06
	-4.382361281023499e-06
	4.078396240933819e-07
	-3.974521631902282e-16
	4.382383345102880e-06
	4.382383345102880e-06
	8.204059653849072e-05
	0.000000000000000e+00
	0.000000000000000e+00
	0.000000000000000e+00
6		-3.009999999999997e+01
	8.177751768734299e-01
	7.736486236976100e-01
	8.177751767960650e-01
	8.177751768778425e-01
	1.800000000000000e+00
	0.000000000000000e+00
	0.000000000000000e+00
	0.000000000000000e+00
	0.000000000000000e+00
	-9.060231968760490e-05
	4.412655317581993e-06
	8.177751767960651e-05
	3.992947942715012e-06
	-4.412655416062390e-06
	4.197074737466733e-07
	-3.992947852507946e-16
	4.006579076528323e-06
	-4.412681671724225e-06
	4.061025955965594e-07
	-4.006578986577025e-16
	4.412581411372685e-06
	4.412581411372685e-06
	8.177747368165456e-05
	0.000000000000000e+00
	0.000000000000000e+00
	0.000000000000000e+00
7		-2.844999999999996e+01
	8.151391222062668e-01
	7.707102452198251e-01
	8.151391221291959e-01
	8.151391222107097e-01
	1.800000000000000e+00
	0.000000000000000e+00
	0.000000000000000e+00
	0.000000000000000e+00
	0.000000000000000e+00
	-9.039952419698238e-05
	4.442887698644171e-06
	8.151391221291960e-05
	4.025068793729467e-06
	-4.442887795899048e-06
	4.178190025720873e-07
	-4.025068704671553e-16
	4.038593069916607e-06
	-4.442967709671813e-06
	4.043746401590658e-07
	-4.038592980112107e-16
	4.442890499944951e-06
	4.442890499944951e-06
	8.151379571330608e-05
	0.000000000000000e+00
	0.000000000000000e+00
	0.000000000000000e+00
8		-2.679999999999995e+01
	8.124973677130226e-01
	7.677670447412779e-01
	8.124973676362459e-01
	8.124973677174956e-01
	1.800000000000000e+00
	0.000000000000000e+00
	0.000000000000000e+00
	0.000000000000000e+00
	0.000000000000000e+00
	-9.019579738378525e-05
	4.473032297174473e-06
	8.124973676362459e-05
	4.057096440586878e-06
	-4.473032409814421e-06
	4.159359696332516e-07
	-4.057096337230399e-16
	4.070337841864443e-06
	-4.472971351580317e-06
	4.026335101229077e-07
	-4.070337700851634e-16
	4.472977543912293e-06
	4.472977543912293e-06
	8.124967365574776e-05
	0.000000000000000e+00
	0.000000000000000e+00
	0.000000000000000e+00
9		-2.514999999999995e+01
	8.098526156646472e-01
	7.648199174067996e-01
	8.098526155881651e-01
	8.098526156691503e-01
	1.800000000000000e+00
	0.000000000000000e+00
	0.000000000000000e+00
	0.000000000000000e+00
	0.000000000000000e+00
	-8.999160490930080e-05
	4.503269825784761e-06
	8.098526155881651e-05
	4.089195209586963e-06
	-4.503269899533138e-06
	4.140746903550946e-07
	-4.089195141277202e-16
	4.102316430948823e-06
	-4.503245505969976e-06
	4.009290754313853e-07
	-4.102316391742643e-16
	4.503175610182097e-06
	4.503175610182097e-06
	8.098521853128204e-05
	0.000000000000000e+00
	0.000000000000000e+00
	0.000000000000000e+00
10		-2.349999999999994e+01
	8.072035544451943e-01
	7.618684572140706e-01
	8.072035543690074e-01
	8.072035544497277e-01
	1.800000000000000e+00
	0.000000000000000e+00
	0.000000000000000e+00
	0.000000000000000e+00
	0.000000000000000e+00
	-8.978741243481636e-05
	4.533509723112372e-06
	8.072035543690074e-05
	4.121283000095552e-06
	-4.533509812880777e-06
	4.122268131973532e-07
	-4.121282917481858e-16
	4.134277037855008e-06
	-4.533513164753196e-06
	3.992361273116156e-07
	-4.134276957927126e-16
	4.533373676451902e-06
	4.533373676451902e-06
	8.072031931760648e-05
	0.000000000000000e+00
	0.000000000000000e+00
	0.000000000000000e+00
11		-2.184999999999994e+01
	8.045497940587899e-01
	7.589125562042437e-01
	8.045497939828986e-01
	8.045497940633535e-01
	1.800000000000000e+00
	0.000000000000000e+00
	0.000000000000000e+00
	0.000000000000000e+00
	0.000000000000000e+00
	-8.958205580711365e-05
	4.563723785454621e-06
	8.045497939828987e-05
	4.153334102834898e-06
	-4.563723879003549e-06
	4.103897765839844e-07
	-4.153334016551643e-16
	4.166140879636369e-06
	-4.563687977019628e-06
	3.975470977998733e-07
	-4.166140785259453e-16
	4.563571742721706e-06
	4.563571742721706e-06
	8.045486499241861e-05
	0.000000000000000e+00
	0.000000000000000e+00
	0.000000000000000e+00
12		-2.019999999999993e+01
	8.018914691199752e-01
	7.559522765163827e-01
	8.018914690443800e-01
	8.018914691245691e-01
	1.800000000000000e+00
	0.000000000000000e+00
	0.000000000000000e+00
	0.000000000000000e+00
	0.000000000000000e+00
	-8.937693201005459e-05
	4.593919260359247e-06
	8.018914690443801e-05
	4.185355155716956e-06
	-4.593919350479188e-06
	4.085641951807683e-07
	-4.185355072278442e-16
	4.197928065094836e-06
	-4.593792139530763e-06
	3.958640748557202e-07
	-4.197927976532043e-16
	4.593880831293973e-06
	4.593880831293973e-06
	8.018907760032334e-05
	0.000000000000000e+00
	0.000000000000000e+00
	0.000000000000000e+00
13		-1.854999999999993e+01
	7.992299991412344e-01
	7.529880965779294e-01
	7.992299990659355e-01
	7.992299991458585e-01
	1.800000000000000e+00
	0.000000000000000e+00
	0.000000000000000e+00
	0.000000000000000e+00
	0.000000000000000e+00
	-8.917087689042091e-05
	4.624190256330496e-06
	7.992299990659356e-05
	4.217432251499969e-06
	-4.624190327366164e-06
	4.067580762879384e-07
	-4.217432185567045e-16
	4.229901827805651e-06
	-4.624113499566504e-06
	3.942116721838426e-07
	-4.229901785693223e-16
	4.624078897563777e-06
	4.624078897563777e-06
	7.992295714132069e-05
	0.000000000000000e+00
	0.000000000000000e+00
	0.000000000000000e+00
14		-1.689999999999992e+01
	7.965635480001962e-01
	7.500194393146565e-01
	7.965635479251942e-01
	7.965635480048505e-01
	1.800000000000000e+00
	0.000000000000000e+00
	0.000000000000000e+00
	0.000000000000000e+00
	0.000000000000000e+00
	-8.896505460143089e-05
	4.654410868553971e-06
	7.965635479251943e-05
	4.249450482171336e-06
	-4.654410961728680e-06
	4.049604799822889e-07
	-4.249450395895481e-16
	4.261710212015918e-06
	-4.654266995115347e-06
	3.925567835255999e-07
	-4.261710107887218e-16
	4.654276963833581e-06
	4.654276963833581e-06
	7.965628157080573e-05
	0.000000000000000e+00
	0.000000000000000e+00
	0.000000000000000e+00
15		-1.524999999999994e+01
	7.938939576054302e-01
	7.470469193775894e-01
	7.938939575307256e-01
	7.938939576101148e-01
	1.800000000000000e+00
	0.000000000000000e+00
	0.000000000000000e+00
	0.000000000000000e+00
	0.000000000000000e+00
	-8.875830098986626e-05
	4.684703822784086e-06
	7.938939575307256e-05
	4.281522178343340e-06
	-4.684703891692604e-06
	4.031817137774162e-07
	-4.281522114360590e-16
	4.293696827002850e-06
	-4.684627880635965e-06
	3.909310540624851e-07
	-4.293696785520433e-16
	4.684586052405848e-06
	4.684586052405848e-06
	7.938927293338338e-05
	0.000000000000000e+00
	0.000000000000000e+00
	0.000000000000000e+00
16		-1.359999999999997e+01
	7.912205492540496e-01
	7.440703345635051e-01
	7.912205491796426e-01
	7.912205492587645e-01
	1.800000000000000e+00
	0.000000000000000e+00
	0.000000000000000e+00
	0.000000000000000e+00
	0.000000000000000e+00
	-8.855178020894527e-05
	4.715021469054448e-06
	7.912205491796427e-05
	4.313603989133054e-06
	-4.715021545075202e-06
	4.014175563735074e-07
	-4.313603918702623e-16
	4.325728635929205e-06
	-4.715050476847988e-06
	3.893218413513558e-07
	-4.325728575196620e-16
	4.714895140978115e-06
	4.714895140978115e-06
	7.912193122905364e-05
	0.000000000000000e+00
	0.000000000000000e+00
	0.000000000000000e+00
17		-1.194999999999999e+01
	7.885421506956245e-01
	7.410893221676071e-01
	7.885421506215156e-01
	7.885421507003697e-01
	1.800000000000000e+00
	0.000000000000000e+00
	0.000000000000000e+00
	0.000000000000000e+00
	0.000000000000000e+00
	-8.834432810544968e-05
	4.745282852801735e-06
	7.885421506215156e-05
	4.345621718737352e-06
	-4.745282942310144e-06
	3.996612240073536e-07
	-4.345621635707276e-16
	4.357578495831199e-06
	-4.745287190120870e-06
	3.877086947254284e-07
	-4.357578393104633e-16
	4.745204229550382e-06
	4.745204229550382e-06
	7.885414543551406e-05
	0.000000000000000e+00
	0.000000000000000e+00
	0.000000000000000e+00
18		-1.030000000000001e+01
	7.858609145965110e-01
	7.381045970234539e-01
	7.858609145227006e-01
	7.858609146012866e-01
	1.800000000000000e+00
	0.000000000000000e+00
	0.000000000000000e+00
	0.000000000000000e+00
	0.000000000000000e+00
	-8.813734166324139e-05
	4.775631757305710e-06
	7.858609145227006e-05
	4.377707401945102e-06
	-4.775631819730253e-06
	3.979244182229214e-07
	-4.377707343735156e-16
	4.389650103876083e-06
	-4.775777631529058e-06
	3.861275280919390e-07
	-4.389650070449336e-16
	4.775624340425111e-06
	4.775624340425111e-06
	7.858602657506708e-05
	0.000000000000000e+00
	0.000000000000000e+00
	0.000000000000000e+00
19		-8.650000000000034e+00
	7.831732876239645e-01
	7.351150246535136e-01
	7.831732875504530e-01
	7.831732876287703e-01
	1.800000000000000e+00
	0.000000000000000e+00
	0.000000000000000e+00
	0.000000000000000e+00
	0.000000000000000e+00
	-8.792825974524021e-05
	4.805826297045091e-06
	7.831732875504531e-05
	4.409638958488231e-06
	-4.805826403014104e-06
	3.961874449668368e-07
	-4.409638860117544e-16
	4.421263829353321e-06
	-4.805782313439638e-06
	3.845184845284439e-07
	-4.421263663196562e-16
	4.805711384392453e-06
	4.805711384392453e-06
	7.831724158080533e-05
	0.000000000000000e+00
	0.000000000000000e+00
	0.000000000000000e+00
20		-7.000000000000057e+00
	7.804826767045727e-01
	7.321217256751644e-01
	7.804826766313605e-01
	7.804826767094087e-01
	1.800000000000000e+00
	0.000000000000000e+00
	0.000000000000000e+00
	0.000000000000000e+00
	0.000000000000000e+00
	-8.772010914981365e-05
	4.836095102940830e-06
	7.804826766313605e-05
	4.441626439531076e-06
	-4.836095164951387e-06
	3.944687258644732e-07
	-4.441626381504766e-16
	4.453062122501887e-06
	-4.836000124548551e-06
	3.829380024919710e-07
	-4.453062086007351e-16
	4.836020472964719e-06
	4.836020472964719e-06
	7.804823454193865e-05
	0.000000000000000e+00
	0.000000000000000e+00
	0.000000000000000e+00
21		-5.350000000000080e+00
	7.777897081779710e-01
	7.291249200573870e-01
	7.777897081050585e-01
	7.777897081828374e-01
	1.800000000000000e+00
	0.000000000000000e+00
	0.000000000000000e+00
	0.000000000000000e+00
	0.000000000000000e+00
	-8.751219138503075e-05
	4.866478812058395e-06
	7.777897081050586e-05
	4.473707685296119e-06
	-4.866478866361467e-06
	3.927711815127190e-07
	-4.473707634131737e-16
	4.485160129013638e-06
	-4.866555344222720e-06
	3.813952156575981e-07
	-4.485160106149702e-16
	4.866440583839449e-06
	4.866440583839449e-06
	7.777889443616459e-05
	0.000000000000000e+00
	0.000000000000000e+00
	0.000000000000000e+00
22		-3.700000000000102e+00
	7.750907868306548e-01
	7.261234589283988e-01
	7.750907867580425e-01
	7.750907868355515e-01
	1.800000000000000e+00
	0.000000000000000e+00
	0.000000000000000e+00
	0.000000000000000e+00
	0.000000000000000e+00
	-8.730264380574226e-05
	4.896732790225600e-06
	7.750907867580425e-05
	4.505657448063985e-06
	-4.896732886150717e-06
	3.910754385372974e-07
	-4.505657358706665e-16
	4.516868916764888e-06
	-4.896700141567344e-06
	3.798312252541427e-07
	-4.516868774927761e-16
	4.896749672411715e-06
	4.896749672411715e-06
	7.750899921887822e-05
	0.000000000000000e+00
	0.000000000000000e+00
	0.000000000000000e+00
23		-2.050000000000125e+00
	7.723887822233616e-01
	7.231182881765487e-01
	7.723887821510498e-01
	7.723887822282886e-01
	1.800000000000000e+00
	0.000000000000000e+00
	0.000000000000000e+00
	0.000000000000000e+00
	0.000000000000000e+00
	-8.709239773452282e-05
	4.927049404681295e-06
	7.723887821510498e-05
	4.537652966881133e-06
	-4.927049465013554e-06
	3.893964985861862e-07
	-4.537652910268554e-16
	4.548730342650904e-06
	-4.927022406215298e-06
	3.782920640192658e-07
	-4.548730304364812e-16
	4.926947738681520e-06
	4.926947738681520e-06
	7.723877093468445e-05
	0.000000000000000e+00
	0.000000000000000e+00
	0.000000000000000e+00
24		-4.000000000001478e-01
	7.696825077099867e-01
	7.201090396171932e-01
	7.696825076379759e-01
	7.696825077149441e-01
	1.800000000000000e+00
	0.000000000000000e+00
	0.000000000000000e+00
	0.000000000000000e+00
	0.000000000000000e+00
	-8.688331581652164e-05
	4.957346809279350e-06
	7.696825076379758e-05
	4.569618979447042e-06
	-4.957346881808577e-06
	3.877279028184965e-07
	-4.569618911489781e-16
	4.580513853999096e-06
	-4.957272075989492e-06
	3.767582224484482e-07
	-4.580513781519916e-16
	4.957367849556249e-06
	4.957367849556249e-06
	7.696820958358330e-05
	0.000000000000000e+00
	0.000000000000000e+00
	0.000000000000000e+00
25		1.249999999999829e+00
	7.669723427282501e-01
	7.170958518610283e-01
	7.669723426565405e-01
	7.669723427332377e-01
	1.800000000000000e+00
	0.000000000000000e+00
	0.000000000000000e+00
	0.000000000000000e+00
	0.000000000000000e+00
	-8.667260408401489e-05
	4.987649086722179e-06
	7.669723426565405e-05
	4.601577740943005e-06
	-4.987649153987137e-06
	3.860714135042892e-07
	-4.601577677821183e-16
	4.612287354416224e-06
	-4.987522670939699e-06
	3.752353169847036e-07
	-4.612287294472883e-16
	4.987565915826053e-06
	4.987565915826053e-06
	7.669720414327230e-05
	0.000000000000000e+00
	0.000000000000000e+00
	0.000000000000000e+00
26		2.899999999999807e+00
	7.642588496325866e-01
	7.140789228713771e-01
	7.642588495611788e-01
	7.642588496376046e-01
	1.800000000000000e+00
	0.000000000000000e+00
	0.000000000000000e+00
	0.000000000000000e+00
	0.000000000000000e+00
	-8.646189235150814e-05
	5.017992676120953e-06
	7.642588495611789e-05
	4.633563091744901e-06
	-5.017992736122195e-06
	3.844296448406498e-07
	-4.633563035051636e-16
	4.644153965467354e-06
	-5.017885524361318e-06
	3.737315593583796e-07
	-4.644153921680542e-16
	5.017986026700783e-06
	5.017986026700783e-06
	7.642575461375145e-05
	0.000000000000000e+00
	0.000000000000000e+00
	0.000000000000000e+00
27		4.549999999999784e+00
	7.615416037476178e-01
	7.110581305431724e-01
	7.615416036765120e-01
	7.615416037526661e-01
	1.800000000000000e+00
	0.000000000000000e+00
	0.000000000000000e+00
	0.000000000000000e+00
	0.000000000000000e+00
	-8.625094778835773e-05
	5.048347320444547e-06
	7.615416036765121e-05
	4.665547204945355e-06
	-5.048347384570213e-06
	3.828001800914132e-07
	-4.665547144829512e-16
	4.676028361526951e-06
	-5.048268153570095e-06
	3.722397925107475e-07
	-4.676028306314778e-16
	5.048295115273049e-06
	5.048295115273049e-06
	7.615408303962568e-05
	0.000000000000000e+00
	0.000000000000000e+00
	0.000000000000000e+00
28		6.199999999999761e+00
	7.588208690277440e-01
	7.080335756687081e-01
	7.588208689569408e-01
	7.588208690328228e-01
	1.800000000000000e+00
	0.000000000000000e+00
	0.000000000000000e+00
	0.000000000000000e+00
	0.000000000000000e+00
	-8.603930473327637e-05
	5.078729335903598e-06
	7.588208689569408e-05
	4.697545301910436e-06
	-5.078729395913121e-06
	3.811840944724397e-07
	-4.697545245153297e-16
	4.707956822791267e-06
	-5.078720354386649e-06
	3.707635320661783e-07
	-4.707956775248413e-16
	5.078715226147779e-06
	5.078715226147779e-06
	7.588196737629005e-05
	0.000000000000000e+00
	0.000000000000000e+00
	0.000000000000000e+00
29		7.849999999999739e+00
	7.560949858700946e-01
	7.050047356939333e-01
	7.560949857995942e-01
	7.560949858752036e-01
	1.800000000000000e+00
	0.000000000000000e+00
	0.000000000000000e+00
	0.000000000000000e+00
	0.000000000000000e+00
	-8.582719601690769e-05
	5.109025017616131e-06
	7.560949857995942e-05
	4.729452077453586e-06
	-5.109025095631260e-06
	3.795730186506184e-07
	-4.729452004352420e-16
	4.739617351683226e-06
	-5.108894759526437e-06
	3.692774083171729e-07
	-4.739617249436955e-16
	5.109024314720045e-06
	5.109024314720045e-06
	7.560940762374457e-05
	0.000000000000000e+00
	0.000000000000000e+00
	0.000000000000000e+00
