Title: **.subckt bandgap_opamp_verification
Date: Wed Nov  4 10:25:16  2020
Plotname: AC Analysis
Flags: complex
No. Variables: 295
No. Points: 91      
Variables:
	0	frequency	frequency	grid=3
	1	v(net2)	voltage
	2	v(xdut.net9)	voltage
	3	v(xdut.net2)	voltage
	4	v(net3)	voltage
	5	v(xdut.net11)	voltage
	6	v(xdut.net5)	voltage
	7	v(xdut.net10)	voltage
	8	v(xdut.net1)	voltage
	9	v(xdut.net8)	voltage
	10	v(xdut.net12)	voltage
	11	v(xdut.net7)	voltage
	12	v(xdut.net4)	voltage
	13	v(xdut.net6)	voltage
	14	v(xdut.net3)	voltage
	15	v(xdut.net13)	voltage
	16	v(xdut.net14)	voltage
	17	v(net4)	voltage
	18	v(net1)	voltage
	19	v(ac)	voltage
	20	v(net5)	voltage
	21	v(net6)	voltage
	22	v(xbmr.net1)	voltage
	23	v(xbmr.net2)	voltage
	24	v(xbmr.xr1.t1)	voltage
	25	v(xbmr.xr1.t2)	voltage
	26	v(xbmr.net3)	voltage
	27	v(xbmr.xccomp.a)	voltage
	28	v(xbmr.xccomp.b1)	voltage
	29	v(xbmr.xcfilt.a)	voltage
	30	v(xbmr.xcfilt.b1)	voltage
	31	v(sky130_fd_pr__esd_nfet_05v0_nvt.pm3)	voltage
	32	v()	voltage
	33	v(m.xbmr.xmdum.msky130_fd_pr__nfet_01v8#dbody)	voltage
	34	v(m.xbmr.xmdum.msky130_fd_pr__nfet_01v8#body)	voltage
	35	v(m.xbmr.xmdum.msky130_fd_pr__nfet_01v8#sbody)	voltage
	36	v(m.xbmr.xmsw_en1.msky130_fd_pr__pfet_01v8_lvt#dbody)	voltage
	37	v(m.xbmr.xmsw_en1.msky130_fd_pr__pfet_01v8_lvt#body)	voltage
	38	v(m.xbmr.xmsw_en1.msky130_fd_pr__pfet_01v8_lvt#sbody)	voltage
	39	v(m.xbmr.xmsw_en2.msky130_fd_pr__pfet_01v8_lvt#dbody)	voltage
	40	v(m.xbmr.xmsw_en2.msky130_fd_pr__pfet_01v8_lvt#body)	voltage
	41	v(m.xbmr.xmsw_en2.msky130_fd_pr__pfet_01v8_lvt#sbody)	voltage
	42	v(m.xbmr.xmcurr_bias.msky130_fd_pr__pfet_01v8_lvt#dbody)	voltage
	43	v(m.xbmr.xmcurr_bias.msky130_fd_pr__pfet_01v8_lvt#body)	voltage
	44	v(m.xbmr.xmcurr_bias.msky130_fd_pr__pfet_01v8_lvt#sbody)	voltage
	45	v(m.xbmr.xmdiff_n3.msky130_fd_pr__nfet_01v8#dbody)	voltage
	46	v(m.xbmr.xmdiff_n3.msky130_fd_pr__nfet_01v8#body)	voltage
	47	v(m.xbmr.xmdiff_n3.msky130_fd_pr__nfet_01v8#sbody)	voltage
	48	v(m.xbmr.xmsw_start.msky130_fd_pr__nfet_01v8#dbody)	voltage
	49	v(m.xbmr.xmsw_start.msky130_fd_pr__nfet_01v8#body)	voltage
	50	v(m.xbmr.xmsw_start.msky130_fd_pr__nfet_01v8#sbody)	voltage
	51	v(m.xbmr.xmcurr_p1.msky130_fd_pr__pfet_01v8_lvt#dbody)	voltage
	52	v(m.xbmr.xmcurr_p1.msky130_fd_pr__pfet_01v8_lvt#body)	voltage
	53	v(m.xbmr.xmcurr_p1.msky130_fd_pr__pfet_01v8_lvt#sbody)	voltage
	54	v(m.xbmr.xmcurr_p2.msky130_fd_pr__pfet_01v8_lvt#dbody)	voltage
	55	v(m.xbmr.xmcurr_p2.msky130_fd_pr__pfet_01v8_lvt#body)	voltage
	56	v(m.xbmr.xmcurr_p2.msky130_fd_pr__pfet_01v8_lvt#sbody)	voltage
	57	v(m.xbmr.xmdiff_n1.msky130_fd_pr__nfet_01v8#dbody)	voltage
	58	v(m.xbmr.xmdiff_n1.msky130_fd_pr__nfet_01v8#body)	voltage
	59	v(m.xbmr.xmdiff_n1.msky130_fd_pr__nfet_01v8#sbody)	voltage
	60	v(m.xbmr.xmdiff_n2.msky130_fd_pr__nfet_01v8#dbody)	voltage
	61	v(m.xbmr.xmdiff_n2.msky130_fd_pr__nfet_01v8#body)	voltage
	62	v(m.xbmr.xmdiff_n2.msky130_fd_pr__nfet_01v8#sbody)	voltage
	63	v(m.xmcurr_op_ctat.msky130_fd_pr__pfet_01v8_lvt#dbody)	voltage
	64	v(m.xmcurr_op_ctat.msky130_fd_pr__pfet_01v8_lvt#body)	voltage
	65	v(m.xmcurr_op_ctat.msky130_fd_pr__pfet_01v8_lvt#sbody)	voltage
	66	v(m.xdut.xmgain.msky130_fd_pr__pfet_01v8_lvt#dbody)	voltage
	67	v(m.xdut.xmgain.msky130_fd_pr__pfet_01v8_lvt#body)	voltage
	68	v(m.xdut.xmgain.msky130_fd_pr__pfet_01v8_lvt#sbody)	voltage
	69	v(m.xdut.xmmnc.msky130_fd_pr__nfet_01v8_lvt#dbody)	voltage
	70	v(m.xdut.xmmnc.msky130_fd_pr__nfet_01v8_lvt#body)	voltage
	71	v(m.xdut.xmmnc.msky130_fd_pr__nfet_01v8_lvt#sbody)	voltage
	72	v(m.xdut.xmcpdiff1.msky130_fd_pr__pfet_01v8_lvt#dbody)	voltage
	73	v(m.xdut.xmcpdiff1.msky130_fd_pr__pfet_01v8_lvt#body)	voltage
	74	v(m.xdut.xmcpdiff1.msky130_fd_pr__pfet_01v8_lvt#sbody)	voltage
	75	v(m.xdut.xmdiffp.msky130_fd_pr__pfet_01v8_lvt#dbody)	voltage
	76	v(m.xdut.xmdiffp.msky130_fd_pr__pfet_01v8_lvt#body)	voltage
	77	v(m.xdut.xmdiffp.msky130_fd_pr__pfet_01v8_lvt#sbody)	voltage
	78	v(m.xdut.xmdiffn.msky130_fd_pr__pfet_01v8_lvt#dbody)	voltage
	79	v(m.xdut.xmdiffn.msky130_fd_pr__pfet_01v8_lvt#body)	voltage
	80	v(m.xdut.xmdiffn.msky130_fd_pr__pfet_01v8_lvt#sbody)	voltage
	81	v(m.xdut.xmmfp.msky130_fd_pr__nfet_01v8_lvt#dbody)	voltage
	82	v(m.xdut.xmmfp.msky130_fd_pr__nfet_01v8_lvt#body)	voltage
	83	v(m.xdut.xmmfp.msky130_fd_pr__nfet_01v8_lvt#sbody)	voltage
	84	v(m.xdut.xmmfn.msky130_fd_pr__nfet_01v8_lvt#dbody)	voltage
	85	v(m.xdut.xmmfn.msky130_fd_pr__nfet_01v8_lvt#body)	voltage
	86	v(m.xdut.xmmfn.msky130_fd_pr__nfet_01v8_lvt#sbody)	voltage
	87	v(m.xdut.xmloadcp.msky130_fd_pr__pfet_01v8_lvt#dbody)	voltage
	88	v(m.xdut.xmloadcp.msky130_fd_pr__pfet_01v8_lvt#body)	voltage
	89	v(m.xdut.xmloadcp.msky130_fd_pr__pfet_01v8_lvt#sbody)	voltage
	90	v(m.xdut.xmloadcn.msky130_fd_pr__pfet_01v8_lvt#dbody)	voltage
	91	v(m.xdut.xmloadcn.msky130_fd_pr__pfet_01v8_lvt#body)	voltage
	92	v(m.xdut.xmloadcn.msky130_fd_pr__pfet_01v8_lvt#sbody)	voltage
	93	v(m.xdut.xmloadmn.msky130_fd_pr__pfet_01v8_lvt#dbody)	voltage
	94	v(m.xdut.xmloadmn.msky130_fd_pr__pfet_01v8_lvt#body)	voltage
	95	v(m.xdut.xmloadmn.msky130_fd_pr__pfet_01v8_lvt#sbody)	voltage
	96	v(m.xdut.xmloadmp.msky130_fd_pr__pfet_01v8_lvt#dbody)	voltage
	97	v(m.xdut.xmloadmp.msky130_fd_pr__pfet_01v8_lvt#body)	voltage
	98	v(m.xdut.xmloadmp.msky130_fd_pr__pfet_01v8_lvt#sbody)	voltage
	99	v(m.xdut.xmcasp.msky130_fd_pr__nfet_01v8_lvt#dbody)	voltage
	100	v(m.xdut.xmcasp.msky130_fd_pr__nfet_01v8_lvt#body)	voltage
	101	v(m.xdut.xmcasp.msky130_fd_pr__nfet_01v8_lvt#sbody)	voltage
	102	v(m.xdut.xmcasn.msky130_fd_pr__nfet_01v8_lvt#dbody)	voltage
	103	v(m.xdut.xmcasn.msky130_fd_pr__nfet_01v8_lvt#body)	voltage
	104	v(m.xdut.xmcasn.msky130_fd_pr__nfet_01v8_lvt#sbody)	voltage
	105	v(m.xdut.xmcasba.msky130_fd_pr__nfet_01v8_lvt#dbody)	voltage
	106	v(m.xdut.xmcasba.msky130_fd_pr__nfet_01v8_lvt#body)	voltage
	107	v(m.xdut.xmcasba.msky130_fd_pr__nfet_01v8_lvt#sbody)	voltage
	108	v(m.xdut.xmcpa.msky130_fd_pr__pfet_01v8_lvt#dbody)	voltage
	109	v(m.xdut.xmcpa.msky130_fd_pr__pfet_01v8_lvt#body)	voltage
	110	v(m.xdut.xmcpa.msky130_fd_pr__pfet_01v8_lvt#sbody)	voltage
	111	v(m.xdut.xmtriodep.msky130_fd_pr__pfet_01v8_lvt#dbody)	voltage
	112	v(m.xdut.xmtriodep.msky130_fd_pr__pfet_01v8_lvt#body)	voltage
	113	v(m.xdut.xmtriodep.msky130_fd_pr__pfet_01v8_lvt#sbody)	voltage
	114	v(m.xdut.xmmna.msky130_fd_pr__nfet_01v8_lvt#dbody)	voltage
	115	v(m.xdut.xmmna.msky130_fd_pr__nfet_01v8_lvt#body)	voltage
	116	v(m.xdut.xmmna.msky130_fd_pr__nfet_01v8_lvt#sbody)	voltage
	117	v(m.xdut.xmcpdiff.msky130_fd_pr__pfet_01v8_lvt#dbody)	voltage
	118	v(m.xdut.xmcpdiff.msky130_fd_pr__pfet_01v8_lvt#body)	voltage
	119	v(m.xdut.xmcpdiff.msky130_fd_pr__pfet_01v8_lvt#sbody)	voltage
	120	v(m.xdut.xmmpa.msky130_fd_pr__pfet_01v8_lvt#dbody)	voltage
	121	v(m.xdut.xmmpa.msky130_fd_pr__pfet_01v8_lvt#body)	voltage
	122	v(m.xdut.xmmpa.msky130_fd_pr__pfet_01v8_lvt#sbody)	voltage
	123	v(m.xdut.xmtrioden.msky130_fd_pr__nfet_01v8_lvt#dbody)	voltage
	124	v(m.xdut.xmtrioden.msky130_fd_pr__nfet_01v8_lvt#body)	voltage
	125	v(m.xdut.xmtrioden.msky130_fd_pr__nfet_01v8_lvt#sbody)	voltage
	126	v(m.xdut.xmmnb.msky130_fd_pr__nfet_01v8_lvt#dbody)	voltage
	127	v(m.xdut.xmmnb.msky130_fd_pr__nfet_01v8_lvt#body)	voltage
	128	v(m.xdut.xmmnb.msky130_fd_pr__nfet_01v8_lvt#sbody)	voltage
	129	v(m.xdut.xmmnr.msky130_fd_pr__nfet_01v8_lvt#dbody)	voltage
	130	v(m.xdut.xmmnr.msky130_fd_pr__nfet_01v8_lvt#body)	voltage
	131	v(m.xdut.xmmnr.msky130_fd_pr__nfet_01v8_lvt#sbody)	voltage
	132	v(m.xdut.xmmpr.msky130_fd_pr__pfet_01v8_lvt#dbody)	voltage
	133	v(m.xdut.xmmpr.msky130_fd_pr__pfet_01v8_lvt#body)	voltage
	134	v(m.xdut.xmmpr.msky130_fd_pr__pfet_01v8_lvt#sbody)	voltage
	135	v(m.xdut.xmmpdiff.msky130_fd_pr__pfet_01v8_lvt#dbody)	voltage
	136	v(m.xdut.xmmpdiff.msky130_fd_pr__pfet_01v8_lvt#body)	voltage
	137	v(m.xdut.xmmpdiff.msky130_fd_pr__pfet_01v8_lvt#sbody)	voltage
	138	i(v3)	current
	139	i(v2)	current
	140	i(vdd)	current
	141	i(@m.xdut.xmmpdiff.msky130_fd_pr__pfet_01v8_lvt[id])	current
	142	i(@m.xdut.xmmpdiff.msky130_fd_pr__pfet_01v8_lvt[is])	current
	143	i(@m.xdut.xmmpdiff.msky130_fd_pr__pfet_01v8_lvt[ig])	current
	144	i(@m.xdut.xmmpdiff.msky130_fd_pr__pfet_01v8_lvt[ib])	current
	145	i(@m.xdut.xmmpr.msky130_fd_pr__pfet_01v8_lvt[id])	current
	146	i(@m.xdut.xmmpr.msky130_fd_pr__pfet_01v8_lvt[is])	current
	147	i(@m.xdut.xmmpr.msky130_fd_pr__pfet_01v8_lvt[ig])	current
	148	i(@m.xdut.xmmpr.msky130_fd_pr__pfet_01v8_lvt[ib])	current
	149	i(@m.xdut.xmmnr.msky130_fd_pr__nfet_01v8_lvt[id])	current
	150	i(@m.xdut.xmmnr.msky130_fd_pr__nfet_01v8_lvt[is])	current
	151	i(@m.xdut.xmmnr.msky130_fd_pr__nfet_01v8_lvt[ig])	current
	152	i(@m.xdut.xmmnr.msky130_fd_pr__nfet_01v8_lvt[ib])	current
	153	i(@m.xdut.xmmnb.msky130_fd_pr__nfet_01v8_lvt[id])	current
	154	i(@m.xdut.xmmnb.msky130_fd_pr__nfet_01v8_lvt[is])	current
	155	i(@m.xdut.xmmnb.msky130_fd_pr__nfet_01v8_lvt[ig])	current
	156	i(@m.xdut.xmmnb.msky130_fd_pr__nfet_01v8_lvt[ib])	current
	157	i(@m.xdut.xmtrioden.msky130_fd_pr__nfet_01v8_lvt[id])	current
	158	i(@m.xdut.xmtrioden.msky130_fd_pr__nfet_01v8_lvt[is])	current
	159	i(@m.xdut.xmtrioden.msky130_fd_pr__nfet_01v8_lvt[ig])	current
	160	i(@m.xdut.xmtrioden.msky130_fd_pr__nfet_01v8_lvt[ib])	current
	161	i(@m.xdut.xmmpa.msky130_fd_pr__pfet_01v8_lvt[id])	current
	162	i(@m.xdut.xmmpa.msky130_fd_pr__pfet_01v8_lvt[is])	current
	163	i(@m.xdut.xmmpa.msky130_fd_pr__pfet_01v8_lvt[ig])	current
	164	i(@m.xdut.xmmpa.msky130_fd_pr__pfet_01v8_lvt[ib])	current
	165	i(@m.xdut.xmcpdiff.msky130_fd_pr__pfet_01v8_lvt[id])	current
	166	i(@m.xdut.xmcpdiff.msky130_fd_pr__pfet_01v8_lvt[is])	current
	167	i(@m.xdut.xmcpdiff.msky130_fd_pr__pfet_01v8_lvt[ig])	current
	168	i(@m.xdut.xmcpdiff.msky130_fd_pr__pfet_01v8_lvt[ib])	current
	169	i(@m.xdut.xmmna.msky130_fd_pr__nfet_01v8_lvt[id])	current
	170	i(@m.xdut.xmmna.msky130_fd_pr__nfet_01v8_lvt[is])	current
	171	i(@m.xdut.xmmna.msky130_fd_pr__nfet_01v8_lvt[ig])	current
	172	i(@m.xdut.xmmna.msky130_fd_pr__nfet_01v8_lvt[ib])	current
	173	i(@m.xdut.xmtriodep.msky130_fd_pr__pfet_01v8_lvt[id])	current
	174	i(@m.xdut.xmtriodep.msky130_fd_pr__pfet_01v8_lvt[is])	current
	175	i(@m.xdut.xmtriodep.msky130_fd_pr__pfet_01v8_lvt[ig])	current
	176	i(@m.xdut.xmtriodep.msky130_fd_pr__pfet_01v8_lvt[ib])	current
	177	i(@m.xdut.xmcpa.msky130_fd_pr__pfet_01v8_lvt[id])	current
	178	i(@m.xdut.xmcpa.msky130_fd_pr__pfet_01v8_lvt[is])	current
	179	i(@m.xdut.xmcpa.msky130_fd_pr__pfet_01v8_lvt[ig])	current
	180	i(@m.xdut.xmcpa.msky130_fd_pr__pfet_01v8_lvt[ib])	current
	181	i(@m.xdut.xmcasba.msky130_fd_pr__nfet_01v8_lvt[id])	current
	182	i(@m.xdut.xmcasba.msky130_fd_pr__nfet_01v8_lvt[is])	current
	183	i(@m.xdut.xmcasba.msky130_fd_pr__nfet_01v8_lvt[ig])	current
	184	i(@m.xdut.xmcasba.msky130_fd_pr__nfet_01v8_lvt[ib])	current
	185	i(@m.xdut.xmcasn.msky130_fd_pr__nfet_01v8_lvt[id])	current
	186	i(@m.xdut.xmcasn.msky130_fd_pr__nfet_01v8_lvt[is])	current
	187	i(@m.xdut.xmcasn.msky130_fd_pr__nfet_01v8_lvt[ig])	current
	188	i(@m.xdut.xmcasn.msky130_fd_pr__nfet_01v8_lvt[ib])	current
	189	i(@m.xdut.xmcasp.msky130_fd_pr__nfet_01v8_lvt[id])	current
	190	i(@m.xdut.xmcasp.msky130_fd_pr__nfet_01v8_lvt[is])	current
	191	i(@m.xdut.xmcasp.msky130_fd_pr__nfet_01v8_lvt[ig])	current
	192	i(@m.xdut.xmcasp.msky130_fd_pr__nfet_01v8_lvt[ib])	current
	193	i(@m.xdut.xmloadmp.msky130_fd_pr__pfet_01v8_lvt[id])	current
	194	i(@m.xdut.xmloadmp.msky130_fd_pr__pfet_01v8_lvt[is])	current
	195	i(@m.xdut.xmloadmp.msky130_fd_pr__pfet_01v8_lvt[ig])	current
	196	i(@m.xdut.xmloadmp.msky130_fd_pr__pfet_01v8_lvt[ib])	current
	197	i(@m.xdut.xmloadmn.msky130_fd_pr__pfet_01v8_lvt[id])	current
	198	i(@m.xdut.xmloadmn.msky130_fd_pr__pfet_01v8_lvt[is])	current
	199	i(@m.xdut.xmloadmn.msky130_fd_pr__pfet_01v8_lvt[ig])	current
	200	i(@m.xdut.xmloadmn.msky130_fd_pr__pfet_01v8_lvt[ib])	current
	201	i(@m.xdut.xmloadcn.msky130_fd_pr__pfet_01v8_lvt[id])	current
	202	i(@m.xdut.xmloadcn.msky130_fd_pr__pfet_01v8_lvt[is])	current
	203	i(@m.xdut.xmloadcn.msky130_fd_pr__pfet_01v8_lvt[ig])	current
	204	i(@m.xdut.xmloadcn.msky130_fd_pr__pfet_01v8_lvt[ib])	current
	205	i(@m.xdut.xmloadcp.msky130_fd_pr__pfet_01v8_lvt[id])	current
	206	i(@m.xdut.xmloadcp.msky130_fd_pr__pfet_01v8_lvt[is])	current
	207	i(@m.xdut.xmloadcp.msky130_fd_pr__pfet_01v8_lvt[ig])	current
	208	i(@m.xdut.xmloadcp.msky130_fd_pr__pfet_01v8_lvt[ib])	current
	209	i(@m.xdut.xmmfn.msky130_fd_pr__nfet_01v8_lvt[id])	current
	210	i(@m.xdut.xmmfn.msky130_fd_pr__nfet_01v8_lvt[is])	current
	211	i(@m.xdut.xmmfn.msky130_fd_pr__nfet_01v8_lvt[ig])	current
	212	i(@m.xdut.xmmfn.msky130_fd_pr__nfet_01v8_lvt[ib])	current
	213	i(@m.xdut.xmmfp.msky130_fd_pr__nfet_01v8_lvt[id])	current
	214	i(@m.xdut.xmmfp.msky130_fd_pr__nfet_01v8_lvt[is])	current
	215	i(@m.xdut.xmmfp.msky130_fd_pr__nfet_01v8_lvt[ig])	current
	216	i(@m.xdut.xmmfp.msky130_fd_pr__nfet_01v8_lvt[ib])	current
	217	i(@m.xdut.xmdiffn.msky130_fd_pr__pfet_01v8_lvt[id])	current
	218	i(@m.xdut.xmdiffn.msky130_fd_pr__pfet_01v8_lvt[is])	current
	219	i(@m.xdut.xmdiffn.msky130_fd_pr__pfet_01v8_lvt[ig])	current
	220	i(@m.xdut.xmdiffn.msky130_fd_pr__pfet_01v8_lvt[ib])	current
	221	i(@m.xdut.xmdiffp.msky130_fd_pr__pfet_01v8_lvt[id])	current
	222	i(@m.xdut.xmdiffp.msky130_fd_pr__pfet_01v8_lvt[is])	current
	223	i(@m.xdut.xmdiffp.msky130_fd_pr__pfet_01v8_lvt[ig])	current
	224	i(@m.xdut.xmdiffp.msky130_fd_pr__pfet_01v8_lvt[ib])	current
	225	i(@m.xdut.xmcpdiff1.msky130_fd_pr__pfet_01v8_lvt[id])	current
	226	i(@m.xdut.xmcpdiff1.msky130_fd_pr__pfet_01v8_lvt[is])	current
	227	i(@m.xdut.xmcpdiff1.msky130_fd_pr__pfet_01v8_lvt[ig])	current
	228	i(@m.xdut.xmcpdiff1.msky130_fd_pr__pfet_01v8_lvt[ib])	current
	229	i(@m.xdut.xmmnc.msky130_fd_pr__nfet_01v8_lvt[id])	current
	230	i(@m.xdut.xmmnc.msky130_fd_pr__nfet_01v8_lvt[is])	current
	231	i(@m.xdut.xmmnc.msky130_fd_pr__nfet_01v8_lvt[ig])	current
	232	i(@m.xdut.xmmnc.msky130_fd_pr__nfet_01v8_lvt[ib])	current
	233	i(@m.xdut.xmgain.msky130_fd_pr__pfet_01v8_lvt[id])	current
	234	i(@m.xdut.xmgain.msky130_fd_pr__pfet_01v8_lvt[is])	current
	235	i(@m.xdut.xmgain.msky130_fd_pr__pfet_01v8_lvt[ig])	current
	236	i(@m.xdut.xmgain.msky130_fd_pr__pfet_01v8_lvt[ib])	current
	237	i(@r1[i])	current
	238	i(@r2[i])	current
	239	i(@m.xmcurr_op_ctat.msky130_fd_pr__pfet_01v8_lvt[id])	current
	240	i(@m.xmcurr_op_ctat.msky130_fd_pr__pfet_01v8_lvt[is])	current
	241	i(@m.xmcurr_op_ctat.msky130_fd_pr__pfet_01v8_lvt[ig])	current
	242	i(@m.xmcurr_op_ctat.msky130_fd_pr__pfet_01v8_lvt[ib])	current
	243	i(@m.xbmr.xmdiff_n2.msky130_fd_pr__nfet_01v8[id])	current
	244	i(@m.xbmr.xmdiff_n2.msky130_fd_pr__nfet_01v8[is])	current
	245	i(@m.xbmr.xmdiff_n2.msky130_fd_pr__nfet_01v8[ig])	current
	246	i(@m.xbmr.xmdiff_n2.msky130_fd_pr__nfet_01v8[ib])	current
	247	i(@r.xbmr.xr1.rend1[i])	current
	248	i(@r.xbmr.xr1.rend2[i])	current
	249	i(@c.xbmr.xr1.xc0.c0[i])	current
	250	i(@c.xbmr.xr1.xc0.c1[i])	current
	251	i(@b.xbmr.xr1.brbody[i])	current
	252	i(@m.xbmr.xmdiff_n1.msky130_fd_pr__nfet_01v8[id])	current
	253	i(@m.xbmr.xmdiff_n1.msky130_fd_pr__nfet_01v8[is])	current
	254	i(@m.xbmr.xmdiff_n1.msky130_fd_pr__nfet_01v8[ig])	current
	255	i(@m.xbmr.xmdiff_n1.msky130_fd_pr__nfet_01v8[ib])	current
	256	i(@m.xbmr.xmcurr_p2.msky130_fd_pr__pfet_01v8_lvt[id])	current
	257	i(@m.xbmr.xmcurr_p2.msky130_fd_pr__pfet_01v8_lvt[is])	current
	258	i(@m.xbmr.xmcurr_p2.msky130_fd_pr__pfet_01v8_lvt[ig])	current
	259	i(@m.xbmr.xmcurr_p2.msky130_fd_pr__pfet_01v8_lvt[ib])	current
	260	i(@m.xbmr.xmcurr_p1.msky130_fd_pr__pfet_01v8_lvt[id])	current
	261	i(@m.xbmr.xmcurr_p1.msky130_fd_pr__pfet_01v8_lvt[is])	current
	262	i(@m.xbmr.xmcurr_p1.msky130_fd_pr__pfet_01v8_lvt[ig])	current
	263	i(@m.xbmr.xmcurr_p1.msky130_fd_pr__pfet_01v8_lvt[ib])	current
	264	i(@m.xbmr.xmsw_start.msky130_fd_pr__nfet_01v8[id])	current
	265	i(@m.xbmr.xmsw_start.msky130_fd_pr__nfet_01v8[is])	current
	266	i(@m.xbmr.xmsw_start.msky130_fd_pr__nfet_01v8[ig])	current
	267	i(@m.xbmr.xmsw_start.msky130_fd_pr__nfet_01v8[ib])	current
	268	i(@m.xbmr.xmdiff_n3.msky130_fd_pr__nfet_01v8[id])	current
	269	i(@m.xbmr.xmdiff_n3.msky130_fd_pr__nfet_01v8[is])	current
	270	i(@m.xbmr.xmdiff_n3.msky130_fd_pr__nfet_01v8[ig])	current
	271	i(@m.xbmr.xmdiff_n3.msky130_fd_pr__nfet_01v8[ib])	current
	272	i(@m.xbmr.xmcurr_bias.msky130_fd_pr__pfet_01v8_lvt[id])	current
	273	i(@m.xbmr.xmcurr_bias.msky130_fd_pr__pfet_01v8_lvt[is])	current
	274	i(@m.xbmr.xmcurr_bias.msky130_fd_pr__pfet_01v8_lvt[ig])	current
	275	i(@m.xbmr.xmcurr_bias.msky130_fd_pr__pfet_01v8_lvt[ib])	current
	276	i(@m.xbmr.xmsw_en2.msky130_fd_pr__pfet_01v8_lvt[id])	current
	277	i(@m.xbmr.xmsw_en2.msky130_fd_pr__pfet_01v8_lvt[is])	current
	278	i(@m.xbmr.xmsw_en2.msky130_fd_pr__pfet_01v8_lvt[ig])	current
	279	i(@m.xbmr.xmsw_en2.msky130_fd_pr__pfet_01v8_lvt[ib])	current
	280	i(@m.xbmr.xmsw_en1.msky130_fd_pr__pfet_01v8_lvt[id])	current
	281	i(@m.xbmr.xmsw_en1.msky130_fd_pr__pfet_01v8_lvt[is])	current
	282	i(@m.xbmr.xmsw_en1.msky130_fd_pr__pfet_01v8_lvt[ig])	current
	283	i(@m.xbmr.xmsw_en1.msky130_fd_pr__pfet_01v8_lvt[ib])	current
	284	i(@c.xbmr.xccomp.c1[i])	current
	285	i(@r.xbmr.xccomp.rs1[i])	current
	286	i(@r.xbmr.xccomp.rs2[i])	current
	287	i(@m.xbmr.xmdum.msky130_fd_pr__nfet_01v8[id])	current
	288	i(@m.xbmr.xmdum.msky130_fd_pr__nfet_01v8[is])	current
	289	i(@m.xbmr.xmdum.msky130_fd_pr__nfet_01v8[ig])	current
	290	i(@m.xbmr.xmdum.msky130_fd_pr__nfet_01v8[ib])	current
	291	i(@c.xbmr.xcfilt.c1[i])	current
	292	i(@r.xbmr.xcfilt.rs1[i])	current
	293	i(@r.xbmr.xcfilt.rs2[i])	current
	294	@include[current]	capacitance
Values:
0		1.000000000000000e+00,2.121995790965272e-314
	0.000000000000000e+00,0.000000000000000e+00
	1.890047962838265e-02,2.514056478268928e-05
	1.633019381299646e-10,3.569372282675179e-05
	-1.258688283826955e-10,-3.635689654140984e-05
	-1.721295815477558e-10,-3.376623893797255e-05
	-2.642763777829321e-10,-5.172749430958085e-05
	6.660204138002248e-11,2.356630614724243e-05
	5.199663936749344e-01,-1.454266125404825e-05
	1.690288782735367e-10,4.770383665920696e-05
	8.297004912105206e-11,2.347221100963930e-05
	3.393222140346310e+02,-1.014010407059883e-03
	1.931071233905077e+00,-3.255890154308558e-05
	-1.450965374500245e+00,4.441931360241367e-05
	-4.564087530876861e-01,-2.833478394758294e-05
	3.172065721463282e-01,2.632124337975519e-05
	2.148887279743037e+01,-3.946401546609923e-05
	0.000000000000000e+00,0.000000000000000e+00
	9.999999999860217e-01,4.275742314366688e-17
	-1.397712414877329e+04,4.395608808499814e-02
	1.000000000000000e+00,0.000000000000000e+00
	5.851005925620752e-15,-2.601501353902950e-20
	-1.704135044850204e-15,7.814219488350159e-21
	-8.020890049772281e-16,3.679076726881957e-21
	-5.003083121726488e-18,2.294848397320000e-23
	-7.970859218555017e-16,3.656128242908758e-21
	1.999514551361773e-16,-9.228063670745831e-22
	-1.704135044850204e-15,7.814220080801573e-21
	-1.704135044850203e-15,7.814219508348383e-21
	1.115881862498566e-33,2.509716674561694e-28
	7.024609280983590e-35,1.579896549737853e-29
	0.000000000000000e+00,0.000000000000000e+00
	0.000000000000000e+00,0.000000000000000e+00
	-1.211550234252213e-33,-2.642162959423705e-28
	-2.423100262230052e-33,-5.284326078323689e-28
	-1.211550234252213e-33,-2.642162959423705e-28
	6.323764696520542e-27,6.880744091738269e-30
	2.649957026126978e-27,2.751772703127485e-30
	1.324984991420225e-27,1.375886734683754e-30
	1.828512156990672e-25,2.562027004742275e-28
	7.315026084951885e-26,1.024957044306678e-28
	3.657532180547024e-26,5.124786355781587e-29
	6.248520106561287e-27,1.257076882329434e-28
	2.499477111647537e-27,2.404056700255662e-28
	1.249881443277600e-27,1.202028434133916e-28
	6.403940569343409e-24,-6.844695625456327e-30
	2.561576157499160e-24,-1.839558703313958e-28
	1.280787905208764e-24,-9.197793535943179e-29
	1.721289123915985e-25,2.493057174768155e-27
	5.170750183547730e-26,9.652452141291266e-28
	-1.700640974698817e-26,-2.173881131298348e-28
	-5.328211845520311e-26,1.824824507173269e-26
	-2.135732810097936e-26,3.749972231576928e-26
	-1.066628687862030e-26,1.874986244303679e-26
	1.828537354128307e-25,2.137248081742042e-26
	7.314657581853349e-26,3.875081000944201e-26
