Title: **.subckt bandgap_core_stability_ctat
Date: Thu Nov  5 15:53:02  2020
Plotname: AC Analysis
Flags: complex
No. Variables: 299
No. Points: 91      
Variables:
	0	frequency	frequency	grid=3
	1	v(x1.net9)	voltage
	2	v(x1.net2)	voltage
	3	v(net4)	voltage
	4	v(net13)	voltage
	5	v(x1.net11)	voltage
	6	v(x1.net5)	voltage
	7	v(x1.net10)	voltage
	8	v(x1.net1)	voltage
	9	v(x1.net8)	voltage
	10	v(x1.net12)	voltage
	11	v(x1.net7)	voltage
	12	v(x1.net4)	voltage
	13	v(x1.net6)	voltage
	14	v(x1.net3)	voltage
	15	v(x1.net13)	voltage
	16	v(x1.net14)	voltage
	17	v(net2)	voltage
	18	v(net1)	voltage
	19	v(ptat)	voltage
	20	v(x1.xc1.a)	voltage
	21	v(x1.xc1.b1)	voltage
	22	v(net5)	voltage
	23	v(cas)	voltage
	24	v(net9)	voltage
	25	v(x5.net1)	voltage
	26	v(net7)	voltage
	27	v(x6.net1)	voltage
	28	v(net8)	voltage
	29	v(x7.net1)	voltage
	30	v(ctat)	voltage
	31	v(net11)	voltage
	32	v(x10.net1)	voltage
	33	v(x11.net1)	voltage
	34	v(net3)	voltage
	35	v(ac)	voltage
	36	v(bmr_biasv)	voltage
	37	v(x8.net1)	voltage
	38	v(x8.net2)	voltage
	39	v(x8.xr1.t1)	voltage
	40	v(x8.xr1.t2)	voltage
	41	v(x8.net3)	voltage
	42	v(x8.xccomp.a)	voltage
	43	v(x8.xccomp.b1)	voltage
	44	v(x8.xcfilt.a)	voltage
	45	v(x8.xcfilt.b1)	voltage
	46	v(net6)	voltage
	47	v(net10)	voltage
	48	v(net14)	voltage
	49	v(x2.net9)	voltage
	50	v(x2.net2)	voltage
	51	v(x2.net11)	voltage
	52	v(x2.net5)	voltage
	53	v(x2.net10)	voltage
	54	v(x2.net1)	voltage
	55	v(x2.net8)	voltage
	56	v(x2.net12)	voltage
	57	v(x2.net7)	voltage
	58	v(x2.net4)	voltage
	59	v(x2.net6)	voltage
	60	v(x2.net3)	voltage
	61	v(x2.net13)	voltage
	62	v(x2.net14)	voltage
	63	v(x2.xc1.a)	voltage
	64	v(x2.xc1.b1)	voltage
	65	v(net12)	voltage
	66	v(sky130_fd_pr__esd_nfet_05v0_nvt.pm3)	voltage
	67	v()	voltage
	68	v(m.xmcpdiff1.msky130_fd_pr__pfet_01v8_lvt#dbody)	voltage
	69	v(m.xmcpdiff1.msky130_fd_pr__pfet_01v8_lvt#body)	voltage
	70	v(m.xmcpdiff1.msky130_fd_pr__pfet_01v8_lvt#sbody)	voltage
	71	v(m.xm2.msky130_fd_pr__pfet_01v8_lvt#dbody)	voltage
	72	v(m.xm2.msky130_fd_pr__pfet_01v8_lvt#body)	voltage
	73	v(m.xm2.msky130_fd_pr__pfet_01v8_lvt#sbody)	voltage
	74	v(m.xmcurr2.msky130_fd_pr__pfet_01v8_lvt#dbody)	voltage
	75	v(m.xmcurr2.msky130_fd_pr__pfet_01v8_lvt#body)	voltage
	76	v(m.xmcurr2.msky130_fd_pr__pfet_01v8_lvt#sbody)	voltage
	77	v(m.x2.xmgain.msky130_fd_pr__pfet_01v8_lvt#dbody)	voltage
	78	v(m.x2.xmgain.msky130_fd_pr__pfet_01v8_lvt#body)	voltage
	79	v(m.x2.xmgain.msky130_fd_pr__pfet_01v8_lvt#sbody)	voltage
	80	v(m.x2.xmmnc.msky130_fd_pr__nfet_01v8_lvt#dbody)	voltage
	81	v(m.x2.xmmnc.msky130_fd_pr__nfet_01v8_lvt#body)	voltage
	82	v(m.x2.xmmnc.msky130_fd_pr__nfet_01v8_lvt#sbody)	voltage
	83	v(m.x2.xmcpdiff1.msky130_fd_pr__pfet_01v8_lvt#dbody)	voltage
	84	v(m.x2.xmcpdiff1.msky130_fd_pr__pfet_01v8_lvt#body)	voltage
	85	v(m.x2.xmcpdiff1.msky130_fd_pr__pfet_01v8_lvt#sbody)	voltage
	86	v(m.x2.xmdiffp.msky130_fd_pr__pfet_01v8_lvt#dbody)	voltage
	87	v(m.x2.xmdiffp.msky130_fd_pr__pfet_01v8_lvt#body)	voltage
	88	v(m.x2.xmdiffp.msky130_fd_pr__pfet_01v8_lvt#sbody)	voltage
	89	v(m.x2.xmdiffn.msky130_fd_pr__pfet_01v8_lvt#dbody)	voltage
	90	v(m.x2.xmdiffn.msky130_fd_pr__pfet_01v8_lvt#body)	voltage
	91	v(m.x2.xmdiffn.msky130_fd_pr__pfet_01v8_lvt#sbody)	voltage
	92	v(m.x2.xmmfp.msky130_fd_pr__nfet_01v8_lvt#dbody)	voltage
	93	v(m.x2.xmmfp.msky130_fd_pr__nfet_01v8_lvt#body)	voltage
	94	v(m.x2.xmmfp.msky130_fd_pr__nfet_01v8_lvt#sbody)	voltage
	95	v(m.x2.xmmfn.msky130_fd_pr__nfet_01v8_lvt#dbody)	voltage
	96	v(m.x2.xmmfn.msky130_fd_pr__nfet_01v8_lvt#body)	voltage
	97	v(m.x2.xmmfn.msky130_fd_pr__nfet_01v8_lvt#sbody)	voltage
	98	v(m.x2.xmloadcp.msky130_fd_pr__pfet_01v8_lvt#dbody)	voltage
	99	v(m.x2.xmloadcp.msky130_fd_pr__pfet_01v8_lvt#body)	voltage
	100	v(m.x2.xmloadcp.msky130_fd_pr__pfet_01v8_lvt#sbody)	voltage
	101	v(m.x2.xmloadcn.msky130_fd_pr__pfet_01v8_lvt#dbody)	voltage
	102	v(m.x2.xmloadcn.msky130_fd_pr__pfet_01v8_lvt#body)	voltage
	103	v(m.x2.xmloadcn.msky130_fd_pr__pfet_01v8_lvt#sbody)	voltage
	104	v(m.x2.xmloadmn.msky130_fd_pr__pfet_01v8_lvt#dbody)	voltage
	105	v(m.x2.xmloadmn.msky130_fd_pr__pfet_01v8_lvt#body)	voltage
	106	v(m.x2.xmloadmn.msky130_fd_pr__pfet_01v8_lvt#sbody)	voltage
	107	v(m.x2.xmloadmp.msky130_fd_pr__pfet_01v8_lvt#dbody)	voltage
	108	v(m.x2.xmloadmp.msky130_fd_pr__pfet_01v8_lvt#body)	voltage
	109	v(m.x2.xmloadmp.msky130_fd_pr__pfet_01v8_lvt#sbody)	voltage
	110	v(m.x2.xmcasp.msky130_fd_pr__nfet_01v8_lvt#dbody)	voltage
	111	v(m.x2.xmcasp.msky130_fd_pr__nfet_01v8_lvt#body)	voltage
	112	v(m.x2.xmcasp.msky130_fd_pr__nfet_01v8_lvt#sbody)	voltage
	113	v(m.x2.xmcasn.msky130_fd_pr__nfet_01v8_lvt#dbody)	voltage
	114	v(m.x2.xmcasn.msky130_fd_pr__nfet_01v8_lvt#body)	voltage
	115	v(m.x2.xmcasn.msky130_fd_pr__nfet_01v8_lvt#sbody)	voltage
	116	v(m.x2.xmcasba.msky130_fd_pr__nfet_01v8_lvt#dbody)	voltage
	117	v(m.x2.xmcasba.msky130_fd_pr__nfet_01v8_lvt#body)	voltage
	118	v(m.x2.xmcasba.msky130_fd_pr__nfet_01v8_lvt#sbody)	voltage
	119	v(m.x2.xmcpa.msky130_fd_pr__pfet_01v8_lvt#dbody)	voltage
	120	v(m.x2.xmcpa.msky130_fd_pr__pfet_01v8_lvt#body)	voltage
	121	v(m.x2.xmcpa.msky130_fd_pr__pfet_01v8_lvt#sbody)	voltage
	122	v(m.x2.xmtriodep.msky130_fd_pr__pfet_01v8_lvt#dbody)	voltage
	123	v(m.x2.xmtriodep.msky130_fd_pr__pfet_01v8_lvt#body)	voltage
	124	v(m.x2.xmtriodep.msky130_fd_pr__pfet_01v8_lvt#sbody)	voltage
	125	v(m.x2.xmmna.msky130_fd_pr__nfet_01v8_lvt#dbody)	voltage
	126	v(m.x2.xmmna.msky130_fd_pr__nfet_01v8_lvt#body)	voltage
	127	v(m.x2.xmmna.msky130_fd_pr__nfet_01v8_lvt#sbody)	voltage
	128	v(m.x2.xmcpdiff.msky130_fd_pr__pfet_01v8_lvt#dbody)	voltage
	129	v(m.x2.xmcpdiff.msky130_fd_pr__pfet_01v8_lvt#body)	voltage
	130	v(m.x2.xmcpdiff.msky130_fd_pr__pfet_01v8_lvt#sbody)	voltage
	131	v(m.x2.xmmpa.msky130_fd_pr__pfet_01v8_lvt#dbody)	voltage
	132	v(m.x2.xmmpa.msky130_fd_pr__pfet_01v8_lvt#body)	voltage
	133	v(m.x2.xmmpa.msky130_fd_pr__pfet_01v8_lvt#sbody)	voltage
	134	v(m.x2.xmtrioden.msky130_fd_pr__nfet_01v8_lvt#dbody)	voltage
	135	v(m.x2.xmtrioden.msky130_fd_pr__nfet_01v8_lvt#body)	voltage
	136	v(m.x2.xmtrioden.msky130_fd_pr__nfet_01v8_lvt#sbody)	voltage
	137	v(m.x2.xmmnb.msky130_fd_pr__nfet_01v8_lvt#dbody)	voltage
	138	v(m.x2.xmmnb.msky130_fd_pr__nfet_01v8_lvt#body)	voltage
	139	v(m.x2.xmmnb.msky130_fd_pr__nfet_01v8_lvt#sbody)	voltage
	140	v(m.x2.xmmnr.msky130_fd_pr__nfet_01v8_lvt#dbody)	voltage
	141	v(m.x2.xmmnr.msky130_fd_pr__nfet_01v8_lvt#body)	voltage
	142	v(m.x2.xmmnr.msky130_fd_pr__nfet_01v8_lvt#sbody)	voltage
	143	v(m.x2.xmmpr.msky130_fd_pr__pfet_01v8_lvt#dbody)	voltage
	144	v(m.x2.xmmpr.msky130_fd_pr__pfet_01v8_lvt#body)	voltage
	145	v(m.x2.xmmpr.msky130_fd_pr__pfet_01v8_lvt#sbody)	voltage
	146	v(m.x2.xmmpdiff.msky130_fd_pr__pfet_01v8_lvt#dbody)	voltage
	147	v(m.x2.xmmpdiff.msky130_fd_pr__pfet_01v8_lvt#body)	voltage
	148	v(m.x2.xmmpdiff.msky130_fd_pr__pfet_01v8_lvt#sbody)	voltage
	149	v(m.xmcurr1.msky130_fd_pr__pfet_01v8_lvt#dbody)	voltage
	150	v(m.xmcurr1.msky130_fd_pr__pfet_01v8_lvt#body)	voltage
	151	v(m.xmcurr1.msky130_fd_pr__pfet_01v8_lvt#sbody)	voltage
	152	v(m.xmcurr.msky130_fd_pr__pfet_01v8_lvt#dbody)	voltage
	153	v(m.xmcurr.msky130_fd_pr__pfet_01v8_lvt#body)	voltage
	154	v(m.xmcurr.msky130_fd_pr__pfet_01v8_lvt#sbody)	voltage
	155	v(m.x8.xmdum.msky130_fd_pr__nfet_01v8#dbody)	voltage
	156	v(m.x8.xmdum.msky130_fd_pr__nfet_01v8#body)	voltage
	157	v(m.x8.xmdum.msky130_fd_pr__nfet_01v8#sbody)	voltage
	158	v(m.x8.xmsw_en1.msky130_fd_pr__pfet_01v8_lvt#dbody)	voltage
	159	v(m.x8.xmsw_en1.msky130_fd_pr__pfet_01v8_lvt#body)	voltage
	160	v(m.x8.xmsw_en1.msky130_fd_pr__pfet_01v8_lvt#sbody)	voltage
	161	v(m.x8.xmsw_en2.msky130_fd_pr__pfet_01v8_lvt#dbody)	voltage
	162	v(m.x8.xmsw_en2.msky130_fd_pr__pfet_01v8_lvt#body)	voltage
	163	v(m.x8.xmsw_en2.msky130_fd_pr__pfet_01v8_lvt#sbody)	voltage
	164	v(m.x8.xmcurr_bias.msky130_fd_pr__pfet_01v8_lvt#dbody)	voltage
	165	v(m.x8.xmcurr_bias.msky130_fd_pr__pfet_01v8_lvt#body)	voltage
	166	v(m.x8.xmcurr_bias.msky130_fd_pr__pfet_01v8_lvt#sbody)	voltage
	167	v(m.x8.xmdiff_n3.msky130_fd_pr__nfet_01v8#dbody)	voltage
	168	v(m.x8.xmdiff_n3.msky130_fd_pr__nfet_01v8#body)	voltage
	169	v(m.x8.xmdiff_n3.msky130_fd_pr__nfet_01v8#sbody)	voltage
	170	v(m.x8.xmsw_start.msky130_fd_pr__nfet_01v8#dbody)	voltage
	171	v(m.x8.xmsw_start.msky130_fd_pr__nfet_01v8#body)	voltage
	172	v(m.x8.xmsw_start.msky130_fd_pr__nfet_01v8#sbody)	voltage
	173	v(m.x8.xmcurr_p1.msky130_fd_pr__pfet_01v8_lvt#dbody)	voltage
	174	v(m.x8.xmcurr_p1.msky130_fd_pr__pfet_01v8_lvt#body)	voltage
	175	v(m.x8.xmcurr_p1.msky130_fd_pr__pfet_01v8_lvt#sbody)	voltage
	176	v(m.x8.xmcurr_p2.msky130_fd_pr__pfet_01v8_lvt#dbody)	voltage
	177	v(m.x8.xmcurr_p2.msky130_fd_pr__pfet_01v8_lvt#body)	voltage
	178	v(m.x8.xmcurr_p2.msky130_fd_pr__pfet_01v8_lvt#sbody)	voltage
	179	v(m.x8.xmdiff_n1.msky130_fd_pr__nfet_01v8#dbody)	voltage
	180	v(m.x8.xmdiff_n1.msky130_fd_pr__nfet_01v8#body)	voltage
	181	v(m.x8.xmdiff_n1.msky130_fd_pr__nfet_01v8#sbody)	voltage
	182	v(m.x8.xmdiff_n2.msky130_fd_pr__nfet_01v8#dbody)	voltage
	183	v(m.x8.xmdiff_n2.msky130_fd_pr__nfet_01v8#body)	voltage
	184	v(m.x8.xmdiff_n2.msky130_fd_pr__nfet_01v8#sbody)	voltage
	185	v(m.x11.xmcas.msky130_fd_pr__pfet_01v8_lvt#dbody)	voltage
	186	v(m.x11.xmcas.msky130_fd_pr__pfet_01v8_lvt#body)	voltage
	187	v(m.x11.xmcas.msky130_fd_pr__pfet_01v8_lvt#sbody)	voltage
	188	v(m.x11.xmcurr.msky130_fd_pr__pfet_01v8_lvt#dbody)	voltage
	189	v(m.x11.xmcurr.msky130_fd_pr__pfet_01v8_lvt#body)	voltage
	190	v(m.x11.xmcurr.msky130_fd_pr__pfet_01v8_lvt#sbody)	voltage
	191	v(m.x10.xmcas.msky130_fd_pr__pfet_01v8_lvt#dbody)	voltage
	192	v(m.x10.xmcas.msky130_fd_pr__pfet_01v8_lvt#body)	voltage
	193	v(m.x10.xmcas.msky130_fd_pr__pfet_01v8_lvt#sbody)	voltage
	194	v(m.x10.xmcurr.msky130_fd_pr__pfet_01v8_lvt#dbody)	voltage
	195	v(m.x10.xmcurr.msky130_fd_pr__pfet_01v8_lvt#body)	voltage
	196	v(m.x10.xmcurr.msky130_fd_pr__pfet_01v8_lvt#sbody)	voltage
	197	v(m.x7.xmcas.msky130_fd_pr__pfet_01v8_lvt#dbody)	voltage
	198	v(m.x7.xmcas.msky130_fd_pr__pfet_01v8_lvt#body)	voltage
	199	v(m.x7.xmcas.msky130_fd_pr__pfet_01v8_lvt#sbody)	voltage
	200	v(m.x7.xmcurr.msky130_fd_pr__pfet_01v8_lvt#dbody)	voltage
	201	v(m.x7.xmcurr.msky130_fd_pr__pfet_01v8_lvt#body)	voltage
	202	v(m.x7.xmcurr.msky130_fd_pr__pfet_01v8_lvt#sbody)	voltage
	203	v(m.x6.xmcas.msky130_fd_pr__pfet_01v8_lvt#dbody)	voltage
	204	v(m.x6.xmcas.msky130_fd_pr__pfet_01v8_lvt#body)	voltage
	205	v(m.x6.xmcas.msky130_fd_pr__pfet_01v8_lvt#sbody)	voltage
	206	v(m.x6.xmcurr.msky130_fd_pr__pfet_01v8_lvt#dbody)	voltage
	207	v(m.x6.xmcurr.msky130_fd_pr__pfet_01v8_lvt#body)	voltage
	208	v(m.x6.xmcurr.msky130_fd_pr__pfet_01v8_lvt#sbody)	voltage
	209	v(m.x5.xmcas.msky130_fd_pr__pfet_01v8_lvt#dbody)	voltage
	210	v(m.x5.xmcas.msky130_fd_pr__pfet_01v8_lvt#body)	voltage
	211	v(m.x5.xmcas.msky130_fd_pr__pfet_01v8_lvt#sbody)	voltage
	212	v(m.x5.xmcurr.msky130_fd_pr__pfet_01v8_lvt#dbody)	voltage
	213	v(m.x5.xmcurr.msky130_fd_pr__pfet_01v8_lvt#body)	voltage
	214	v(m.x5.xmcurr.msky130_fd_pr__pfet_01v8_lvt#sbody)	voltage
	215	v(m.xm1.msky130_fd_pr__nfet_01v8_lvt#dbody)	voltage
	216	v(m.xm1.msky130_fd_pr__nfet_01v8_lvt#body)	voltage
	217	v(m.xm1.msky130_fd_pr__nfet_01v8_lvt#sbody)	voltage
	218	v(m.xm3.msky130_fd_pr__nfet_01v8_lvt#dbody)	voltage
	219	v(m.xm3.msky130_fd_pr__nfet_01v8_lvt#body)	voltage
	220	v(m.xm3.msky130_fd_pr__nfet_01v8_lvt#sbody)	voltage
	221	v(m.x1.xmgain.msky130_fd_pr__pfet_01v8_lvt#dbody)	voltage
	222	v(m.x1.xmgain.msky130_fd_pr__pfet_01v8_lvt#body)	voltage
	223	v(m.x1.xmgain.msky130_fd_pr__pfet_01v8_lvt#sbody)	voltage
	224	v(m.x1.xmmnc.msky130_fd_pr__nfet_01v8_lvt#dbody)	voltage
	225	v(m.x1.xmmnc.msky130_fd_pr__nfet_01v8_lvt#body)	voltage
	226	v(m.x1.xmmnc.msky130_fd_pr__nfet_01v8_lvt#sbody)	voltage
	227	v(m.x1.xmcpdiff1.msky130_fd_pr__pfet_01v8_lvt#dbody)	voltage
	228	v(m.x1.xmcpdiff1.msky130_fd_pr__pfet_01v8_lvt#body)	voltage
	229	v(m.x1.xmcpdiff1.msky130_fd_pr__pfet_01v8_lvt#sbody)	voltage
	230	v(m.x1.xmdiffp.msky130_fd_pr__pfet_01v8_lvt#dbody)	voltage
	231	v(m.x1.xmdiffp.msky130_fd_pr__pfet_01v8_lvt#body)	voltage
	232	v(m.x1.xmdiffp.msky130_fd_pr__pfet_01v8_lvt#sbody)	voltage
	233	v(m.x1.xmdiffn.msky130_fd_pr__pfet_01v8_lvt#dbody)	voltage
	234	v(m.x1.xmdiffn.msky130_fd_pr__pfet_01v8_lvt#body)	voltage
	235	v(m.x1.xmdiffn.msky130_fd_pr__pfet_01v8_lvt#sbody)	voltage
	236	v(m.x1.xmmfp.msky130_fd_pr__nfet_01v8_lvt#dbody)	voltage
	237	v(m.x1.xmmfp.msky130_fd_pr__nfet_01v8_lvt#body)	voltage
	238	v(m.x1.xmmfp.msky130_fd_pr__nfet_01v8_lvt#sbody)	voltage
	239	v(m.x1.xmmfn.msky130_fd_pr__nfet_01v8_lvt#dbody)	voltage
	240	v(m.x1.xmmfn.msky130_fd_pr__nfet_01v8_lvt#body)	voltage
	241	v(m.x1.xmmfn.msky130_fd_pr__nfet_01v8_lvt#sbody)	voltage
	242	v(m.x1.xmloadcp.msky130_fd_pr__pfet_01v8_lvt#dbody)	voltage
	243	v(m.x1.xmloadcp.msky130_fd_pr__pfet_01v8_lvt#body)	voltage
	244	v(m.x1.xmloadcp.msky130_fd_pr__pfet_01v8_lvt#sbody)	voltage
	245	v(m.x1.xmloadcn.msky130_fd_pr__pfet_01v8_lvt#dbody)	voltage
	246	v(m.x1.xmloadcn.msky130_fd_pr__pfet_01v8_lvt#body)	voltage
	247	v(m.x1.xmloadcn.msky130_fd_pr__pfet_01v8_lvt#sbody)	voltage
	248	v(m.x1.xmloadmn.msky130_fd_pr__pfet_01v8_lvt#dbody)	voltage
	249	v(m.x1.xmloadmn.msky130_fd_pr__pfet_01v8_lvt#body)	voltage
	250	v(m.x1.xmloadmn.msky130_fd_pr__pfet_01v8_lvt#sbody)	voltage
	251	v(m.x1.xmloadmp.msky130_fd_pr__pfet_01v8_lvt#dbody)	voltage
	252	v(m.x1.xmloadmp.msky130_fd_pr__pfet_01v8_lvt#body)	voltage
	253	v(m.x1.xmloadmp.msky130_fd_pr__pfet_01v8_lvt#sbody)	voltage
	254	v(m.x1.xmcasp.msky130_fd_pr__nfet_01v8_lvt#dbody)	voltage
	255	v(m.x1.xmcasp.msky130_fd_pr__nfet_01v8_lvt#body)	voltage
	256	v(m.x1.xmcasp.msky130_fd_pr__nfet_01v8_lvt#sbody)	voltage
	257	v(m.x1.xmcasn.msky130_fd_pr__nfet_01v8_lvt#dbody)	voltage
	258	v(m.x1.xmcasn.msky130_fd_pr__nfet_01v8_lvt#body)	voltage
	259	v(m.x1.xmcasn.msky130_fd_pr__nfet_01v8_lvt#sbody)	voltage
	260	v(m.x1.xmcasba.msky130_fd_pr__nfet_01v8_lvt#dbody)	voltage
	261	v(m.x1.xmcasba.msky130_fd_pr__nfet_01v8_lvt#body)	voltage
	262	v(m.x1.xmcasba.msky130_fd_pr__nfet_01v8_lvt#sbody)	voltage
	263	v(m.x1.xmcpa.msky130_fd_pr__pfet_01v8_lvt#dbody)	voltage
	264	v(m.x1.xmcpa.msky130_fd_pr__pfet_01v8_lvt#body)	voltage
	265	v(m.x1.xmcpa.msky130_fd_pr__pfet_01v8_lvt#sbody)	voltage
	266	v(m.x1.xmtriodep.msky130_fd_pr__pfet_01v8_lvt#dbody)	voltage
	267	v(m.x1.xmtriodep.msky130_fd_pr__pfet_01v8_lvt#body)	voltage
	268	v(m.x1.xmtriodep.msky130_fd_pr__pfet_01v8_lvt#sbody)	voltage
	269	v(m.x1.xmmna.msky130_fd_pr__nfet_01v8_lvt#dbody)	voltage
	270	v(m.x1.xmmna.msky130_fd_pr__nfet_01v8_lvt#body)	voltage
	271	v(m.x1.xmmna.msky130_fd_pr__nfet_01v8_lvt#sbody)	voltage
	272	v(m.x1.xmcpdiff.msky130_fd_pr__pfet_01v8_lvt#dbody)	voltage
	273	v(m.x1.xmcpdiff.msky130_fd_pr__pfet_01v8_lvt#body)	voltage
	274	v(m.x1.xmcpdiff.msky130_fd_pr__pfet_01v8_lvt#sbody)	voltage
	275	v(m.x1.xmmpa.msky130_fd_pr__pfet_01v8_lvt#dbody)	voltage
	276	v(m.x1.xmmpa.msky130_fd_pr__pfet_01v8_lvt#body)	voltage
	277	v(m.x1.xmmpa.msky130_fd_pr__pfet_01v8_lvt#sbody)	voltage
	278	v(m.x1.xmtrioden.msky130_fd_pr__nfet_01v8_lvt#dbody)	voltage
	279	v(m.x1.xmtrioden.msky130_fd_pr__nfet_01v8_lvt#body)	voltage
	280	v(m.x1.xmtrioden.msky130_fd_pr__nfet_01v8_lvt#sbody)	voltage
	281	v(m.x1.xmmnb.msky130_fd_pr__nfet_01v8_lvt#dbody)	voltage
	282	v(m.x1.xmmnb.msky130_fd_pr__nfet_01v8_lvt#body)	voltage
	283	v(m.x1.xmmnb.msky130_fd_pr__nfet_01v8_lvt#sbody)	voltage
	284	v(m.x1.xmmnr.msky130_fd_pr__nfet_01v8_lvt#dbody)	voltage
	285	v(m.x1.xmmnr.msky130_fd_pr__nfet_01v8_lvt#body)	voltage
	286	v(m.x1.xmmnr.msky130_fd_pr__nfet_01v8_lvt#sbody)	voltage
	287	v(m.x1.xmmpr.msky130_fd_pr__pfet_01v8_lvt#dbody)	voltage
	288	v(m.x1.xmmpr.msky130_fd_pr__pfet_01v8_lvt#body)	voltage
	289	v(m.x1.xmmpr.msky130_fd_pr__pfet_01v8_lvt#sbody)	voltage
	290	v(m.x1.xmmpdiff.msky130_fd_pr__pfet_01v8_lvt#dbody)	voltage
	291	v(m.x1.xmmpdiff.msky130_fd_pr__pfet_01v8_lvt#body)	voltage
	292	v(m.x1.xmmpdiff.msky130_fd_pr__pfet_01v8_lvt#sbody)	voltage
	293	i(vin)	current
	294	i(vdd)	current
	295	i(v6)	current
	296	i(v5)	current
	297	i(v3)	current
	298	i(v2)	current
Values:
0		1.000000000000000e+00,2.121995790965272e-314
	4.643475794683831e-02,2.056721517389752e-05
	3.894565377850004e-11,-1.125084296759859e-09
	0.000000000000000e+00,0.000000000000000e+00
	-3.796094705429714e-11,1.181968794311121e-09
	-3.242672812828550e-11,2.977644378207653e-09
	-5.088158277086665e-11,4.672298116198883e-09
	2.271436742069583e-11,3.455058104470760e-11
	1.019047067868261e+00,4.513698554356496e-04
	5.144848759802557e-11,-7.697651924001637e-10
	2.256098323317676e-11,-3.375542779407485e-10
	7.401373755039099e-01,-5.333574703708309e-04
	8.047176800352933e-03,-6.098660623753837e-06
	-2.951711601840717e-03,1.157809849022505e-06
	-8.169920221892614e-04,3.244364950547201e-07
	9.109816820474842e-04,-3.579338160994232e-07
	3.089117727087431e-02,-2.185739629440062e-05
	1.063814310142474e+00,4.723657861081251e-04
	1.065419759779211e+00,4.711558065367975e-04
	1.063798729255593e+00,3.577607673616072e-02
	3.089117727085458e-02,-2.185739572526040e-05
	3.089117727087382e-02,-2.185739628034426e-05
	4.268067250186025e+02,2.585749438941985e+00
	-9.416000146776071e+02,-5.704439132335645e+00
	-3.796094705429714e-11,1.181968794311121e-09
	-7.680972245506258e+02,-4.664978826706163e+00
	1.063814310142474e+00,4.723657861081251e-04
	-7.680970964007535e+02,-4.664978471656993e+00
	1.065419759779211e+00,4.711558065367975e-04
	-1.316912069921611e+02,-7.870842406739256e-01
	-1.259099026050879e+03,-7.649452698320394e+00
	5.693401617378777e+03,3.458757668437338e+01
	-7.573655661749051e+02,-4.599790560365494e+00
	-3.283711576559339e+02,-1.982096295561283e+00
	3.440981422001848e-01,1.527885492879514e-04
	5.693401617378777e+03,3.458757668437338e+01
	6.066373468511661e-17,3.671114782001169e-19
	-1.191886972089526e-17,-7.212627865157126e-20
	-5.518798579977007e-18,-3.339664218837465e-20
	-4.147891618609288e-20,-2.510068998086712e-22
	-5.477319663790913e-18,-3.314563528856598e-20
	1.680438264994042e-18,1.016901405416648e-20
	-1.191886972089530e-17,-7.212627864613079e-20
	-1.191886972089527e-17,-7.212627865055874e-20
	-1.692017824132936e-32,2.795993219000305e-30
	-5.186073973863908e-33,8.569784228832224e-31
	8.258860830405027e-09,-1.359478200247254e-06
	1.000000000005692e+00,3.458754538235229e-14
	1.000000000000000e+00,0.000000000000000e+00
	4.534139876244352e-02,1.298779598546599e-05
	-8.480594147223989e-09,1.396276331541866e-06
	6.876963410324439e-09,-1.132872369603102e-06
	1.079080912032464e-08,-1.777619076378102e-06
	-5.013063765049537e-09,8.255066010943623e-07
	9.950541327902820e-01,2.658740797686102e-04
	-1.127342448125385e-08,1.856316039207366e-06
	-4.943583759013768e-09,8.140241029366767e-07
	3.014575700600042e+01,1.844715949643908e-01
	3.371623521999493e-01,2.094240610576745e-03
	-8.435826923904839e-02,-6.243423781675480e-04
	-2.334880305769848e-02,-1.742864948922568e-04
	2.603491303464503e-02,1.941304844474928e-04
	1.247490429457181e+00,7.592582415229690e-03
	1.247490429461400e+00,7.592581720768801e-03
	1.247490429457285e+00,7.592582398078221e-03
	-5.478691171808131e+02,-3.319130013883258e+00
	0.000000000000000e+00,0.000000000000000e+00
	0.000000000000000e+00,0.000000000000000e+00
	-3.284652017651197e-08,-9.763196620368546e-10
	-1.861683863103600e-08,-1.043671010921089e-09
	-2.300382101164995e-08,-8.260040155470638e-10
	-1.710262660083097e-08,-3.119087393318963e-09
	-6.814510408944020e-09,-5.629839070722473e-09
	-3.407275738318268e-09,-2.814920048125637e-09
	6.545672903249019e-12,-1.077417003299517e-09
	1.309134580818532e-11,-2.154834006651287e-09
	6.545672903249019e-12,-1.077417003299517e-09
	-3.948915660544456e-08,-7.589884417690376e-10
	-1.602853824575684e-08,-2.831175804642423e-10
	-8.014268001997225e-09,-1.415587620752919e-10
	-3.939988644120209e-08,-4.032693989950682e-10
	-1.584640459340906e-08,-1.637300125559937e-10
	-7.923203030230124e-09,-8.186501484738451e-11
	-1.922997951372485e-18,6.309552412367648e-17
	-2.006088951905048e-18,3.338308840279199e-17
	-1.475488254384332e-18,3.704044444138272e-17
	9.950541327584492e-01,2.658740791672737e-04
