Title: **.subckt ideal_bandgap_test
Date: Sun Sep 27 15:31:46  2020
Plotname: DC transfer characteristic
Flags: real
No. Variables: 31
No. Points: 101     
Variables:
	0	temp-sweep	temp-sweep
	1	v(node1)	voltage
	2	v(net1)	voltage
	3	v(node3)	voltage
	4	v(node2)	voltage
	5	v(vdd)	voltage
	6	v(sky130_fd_pr__esd_nfet_05v0_nvt.pm3)	voltage
	7	v()	voltage
	8	v(gsu_int1)	voltage
	9	i(bgsu)	current
	10	i(v1)	current
	11	i(@r1[i])	current
	12	i(@r2[i])	current
	13	i(@q.xq1.qsky130_fd_pr__pnp_05v5_w3p40l3p40[ic])	current
	14	i(@q.xq1.qsky130_fd_pr__pnp_05v5_w3p40l3p40[ie])	current
	15	i(@q.xq1.qsky130_fd_pr__pnp_05v5_w3p40l3p40[ib])	current
	16	i(@q.xq1.qsky130_fd_pr__pnp_05v5_w3p40l3p40[is])	current
	17	i(@q.xq2.qsky130_fd_pr__pnp_05v5_w3p40l3p40[ic])	current
	18	i(@q.xq2.qsky130_fd_pr__pnp_05v5_w3p40l3p40[ie])	current
	19	i(@q.xq2.qsky130_fd_pr__pnp_05v5_w3p40l3p40[ib])	current
	20	i(@q.xq2.qsky130_fd_pr__pnp_05v5_w3p40l3p40[is])	current
	21	i(@g1[i])	current
	22	i(@g2[i])	current
	23	i(@g3[i])	current
	24	@include[current]	capacitance
	25	i(@gsu[i])	current
	26	i(@bgsu[i])	current
	27	i(@cs1[i])	current
	28	i(@cs2[i])	current
	29	i(@cs3[i])	current
	30	i(@cs4[i])	current
Values:
0		-4.000000000000000e+01
	8.411415208870113e-01
	7.987563416244386e-01
	8.411415208793649e-01
	8.411415208931542e-01
	1.800000000000000e+00
	0.000000000000000e+00
	0.000000000000000e+00
	0.000000000000000e+00
	0.000000000000000e+00
	-2.607493661344051e-05
	6.142779603271403e-06
	1.378920526031746e-05
	5.522906871589754e-06
	-6.142817452589913e-06
	6.199105815524465e-07
	-5.522872703801300e-16
	5.537989588697644e-06
	-6.142871360701644e-06
	6.048817725577950e-07
	-5.537952917136907e-16
	6.142863995250991e-06
	6.142863995250991e-06
	1.378930303275183e-05
	0.000000000000000e+00
	0.000000000000000e+00
	0.000000000000000e+00
	0.000000000000000e+00
	0.000000000000000e+00
	0.000000000000000e+00
	0.000000000000000e+00
1		-3.834999999999999e+01
	8.387185862283640e-01
	7.960719618383741e-01
	8.387185862207951e-01
	8.387185862345446e-01
	1.800000000000000e+00
	0.000000000000000e+00
	0.000000000000000e+00
	0.000000000000000e+00
	0.000000000000000e+00
	-2.611102536320686e-05
	6.180670201447811e-06
	1.374948502001304e-05
	5.617139394734236e-06
	-6.239362580362833e-06
	6.222231861850061e-07
	-5.564091752046397e-16
	5.620267618510529e-06
	-6.226437133040829e-06
	6.061695150881967e-07
	-5.578969580255326e-16
	6.180611578088246e-06
	6.180611578088246e-06
	1.374955704847025e-05
	0.000000000000000e+00
	0.000000000000000e+00
	0.000000000000000e+00
	0.000000000000000e+00
	0.000000000000000e+00
	0.000000000000000e+00
	0.000000000000000e+00
2		-3.669999999999999e+01
	8.360285506726667e-01
	7.930387942618592e-01
	8.360285506651915e-01
	8.360285506788970e-01
	1.800000000000000e+00
	0.000000000000000e+00
	0.000000000000000e+00
	0.000000000000000e+00
	0.000000000000000e+00
	-2.616620622575283e-05
	6.230399479827173e-06
	1.370538607647855e-05
	5.616926517752185e-06
	-6.231303484702665e-06
	6.143769675120909e-07
	-5.616108471996894e-16
	5.631129119448161e-06
	-6.230882663320877e-06
	5.997535444357827e-07
	-5.630664894134135e-16
	6.230349569591453e-06
	6.230349569591453e-06
	1.370548119439263e-05
	0.000000000000000e+00
	0.000000000000000e+00
	0.000000000000000e+00
	0.000000000000000e+00
	0.000000000000000e+00
	0.000000000000000e+00
	0.000000000000000e+00
3		-3.504999999999998e+01
	8.334642473899199e-01
	7.901703264398506e-01
	8.334642473825309e-01
	8.334642473961943e-01
	1.800000000000000e+00
	0.000000000000000e+00
	0.000000000000000e+00
	0.000000000000000e+00
	0.000000000000000e+00
	-2.621207386255264e-05
	6.274481297111482e-06
	1.366334831774641e-05
	5.663122285334429e-06
	-6.274678165682136e-06
	6.115558809140009e-07
	-5.662943924867949e-16
	5.677367000292851e-06
	-6.274551165733563e-06
	5.971841660084386e-07
	-5.677266012579681e-16
	6.274425423669072e-06
	6.274425423669072e-06
	1.366340374175934e-05
	0.000000000000000e+00
	0.000000000000000e+00
	0.000000000000000e+00
	0.000000000000000e+00
	0.000000000000000e+00
	0.000000000000000e+00
	0.000000000000000e+00
4		-3.339999999999998e+01
	8.308971153124393e-01
	7.872990334728283e-01
	8.308971153051364e-01
	8.308971153187578e-01
	1.800000000000000e+00
	0.000000000000000e+00
	0.000000000000000e+00
	0.000000000000000e+00
	0.000000000000000e+00
	-2.625840716063976e-05
	6.318562585450870e-06
	1.362126418533011e-05
	5.709759297445993e-06
	-6.318562642464394e-06
	6.088033455893760e-07
	-5.709759244418785e-16
	5.724021665557051e-06
	-6.318700357511785e-06
	5.946786925271357e-07
	-5.724021614111965e-16
	6.318501277746691e-06
	6.318501277746691e-06
	1.362132628912605e-05
	0.000000000000000e+00
	0.000000000000000e+00
	0.000000000000000e+00
	0.000000000000000e+00
	0.000000000000000e+00
	0.000000000000000e+00
	0.000000000000000e+00
5		-3.174999999999997e+01
	8.283238207810983e-01
	7.844231555361317e-01
	8.283238207738816e-01
	8.283238207874607e-01
	1.800000000000000e+00
	0.000000000000000e+00
	0.000000000000000e+00
	0.000000000000000e+00
	0.000000000000000e+00
	-2.630404196679592e-05
	6.362415252893711e-06
	1.357907902908003e-05
	5.756348134972042e-06
	-6.362415403593254e-06
	6.060672691968464e-07
	-5.756347997034824e-16
	5.770180902869595e-06
	-6.362322321955379e-06
	5.921414196628029e-07
	-5.770180662502816e-16
	6.362355087219385e-06
	6.362355087219385e-06
	1.357913781419029e-05
	0.000000000000000e+00
	0.000000000000000e+00
	0.000000000000000e+00
	0.000000000000000e+00
	0.000000000000000e+00
	0.000000000000000e+00
	0.000000000000000e+00
6		-3.009999999999997e+01
	8.257480156744595e-01
	7.815434552128445e-01
	8.257480156673290e-01
	8.257480156808660e-01
	1.800000000000000e+00
	0.000000000000000e+00
	0.000000000000000e+00
	0.000000000000000e+00
	0.000000000000000e+00
	-2.634990960359573e-05
	6.406458037915221e-06
	1.353685271585785e-05
	5.803090124228049e-06
	-6.406458141633016e-06
	6.033680179852756e-07
	-5.803090028694210e-16
	5.816825754588331e-06
	-6.406499594733251e-06
	5.896738407266021e-07
	-5.816825714128233e-16
	6.406430941297003e-06
	6.406430941297003e-06
	1.353694933925453e-05
	0.000000000000000e+00
	0.000000000000000e+00
	0.000000000000000e+00
	0.000000000000000e+00
	0.000000000000000e+00
	0.000000000000000e+00
	0.000000000000000e+00
7		-2.844999999999996e+01
	8.231670395086376e-01
	7.786590909078391e-01
	8.231670395015933e-01
	8.231670395150880e-01
	1.800000000000000e+00
	0.000000000000000e+00
	0.000000000000000e+00
	0.000000000000000e+00
	0.000000000000000e+00
	-2.639531157910824e-05
	6.450427333449048e-06
	1.349454163117366e-05
	5.849746533210984e-06
	-6.450427487262849e-06
	6.006809546368396e-07
	-5.849746392084590e-16
	5.863227630837537e-06
	-6.450428371093124e-06
	5.872007408419107e-07
	-5.863227463288982e-16
	6.450395773072159e-06
	6.450395773072159e-06
	1.349464984201632e-05
	0.000000000000000e+00
	0.000000000000000e+00
	0.000000000000000e+00
	0.000000000000000e+00
	0.000000000000000e+00
	0.000000000000000e+00
	0.000000000000000e+00
8		-2.679999999999995e+01
	8.205812378701689e-01
	7.757701936284426e-01
	8.205812378632110e-01
	8.205812378766633e-01
	1.800000000000000e+00
	0.000000000000000e+00
	0.000000000000000e+00
	0.000000000000000e+00
	0.000000000000000e+00
	-2.644117921590805e-05
	6.494354237931352e-06
	1.345215144038051e-05
	5.896345408652489e-06
	-6.494354382315864e-06
	5.980089742530095e-07
	-5.896345276053643e-16
	5.909472017730603e-06
	-6.494203331792969e-06
	5.847313146533133e-07
	-5.909471872566803e-16
	6.494360604847316e-06
	6.494360604847316e-06
	1.345223932247563e-05
	0.000000000000000e+00
	0.000000000000000e+00
	0.000000000000000e+00
	0.000000000000000e+00
	0.000000000000000e+00
	0.000000000000000e+00
	0.000000000000000e+00
9		-2.514999999999995e+01
	8.179927706443830e-01
	7.728774821338430e-01
	8.179927706375116e-01
	8.179927706509215e-01
	1.800000000000000e+00
	0.000000000000000e+00
	0.000000000000000e+00
	0.000000000000000e+00
	0.000000000000000e+00
	-2.648634836077690e-05
	6.538447610223193e-06
	1.340971755143462e-05
	5.943077054484654e-06
	-6.538447711464727e-06
	5.953706575743810e-07
	-5.943076960935080e-16
	5.956138456090324e-06
	-6.538461301071425e-06
	5.823228455767139e-07
	-5.956138411404368e-16
	6.538436458924934e-06
	6.538436458924934e-06
	1.340982880293495e-05
	0.000000000000000e+00
	0.000000000000000e+00
	0.000000000000000e+00
	0.000000000000000e+00
	0.000000000000000e+00
	0.000000000000000e+00
	0.000000000000000e+00
10		-2.349999999999994e+01
	8.153988197691580e-01
	7.699800629120018e-01
	8.153988197623731e-01
	8.153988197757404e-01
	1.800000000000000e+00
	0.000000000000000e+00
	0.000000000000000e+00
	0.000000000000000e+00
	0.000000000000000e+00
	-2.653221599757671e-05
	6.582428530022627e-06
	1.336719376659628e-05
	5.989687796317877e-06
	-6.582428683625274e-06
	5.927408879063663e-07
	-5.989687654930596e-16
	6.002453308572147e-06
	-6.582351917068463e-06
	5.798986090965611e-07
	-6.002453123679710e-16
	6.582401290700091e-06
	6.582401290700091e-06
	1.336730726109181e-05
	0.000000000000000e+00
	0.000000000000000e+00
	0.000000000000000e+00
	0.000000000000000e+00
	0.000000000000000e+00
	0.000000000000000e+00
	0.000000000000000e+00
11		-2.184999999999994e+01
	8.128013987818598e-01
	7.670786063470021e-01
	8.128013987751616e-01
	8.128013987884862e-01
	1.800000000000000e+00
	0.000000000000000e+00
	0.000000000000000e+00
	0.000000000000000e+00
	0.000000000000000e+00
	-2.657761797308922e-05
	6.626491657225748e-06
	1.332461309467478e-05
	6.036354983129816e-06
	-6.626491769513809e-06
	5.901367869876292e-07
	-6.036354879542586e-16
	6.048956945781879e-06
	-6.626468415237138e-06
	5.775114700601549e-07
	-6.048956871569713e-16
	6.626477144777709e-06
	6.626477144777709e-06
	1.332467469694620e-05
	0.000000000000000e+00
	0.000000000000000e+00
	0.000000000000000e+00
	0.000000000000000e+00
	0.000000000000000e+00
	0.000000000000000e+00
	0.000000000000000e+00
12		-2.019999999999993e+01
	8.101989841235607e-01
	7.641726378370902e-01
	8.101989841169491e-01
	8.101989841302312e-01
	1.800000000000000e+00
	0.000000000000000e+00
	0.000000000000000e+00
	0.000000000000000e+00
	0.000000000000000e+00
	-2.662301994860172e-05
	6.670484969053697e-06
	1.328195055929425e-05
	6.082940169111790e-06
	-6.670485108325294e-06
	5.875449398217986e-07
	-6.082940040610732e-16
	6.095226933006482e-06
	-6.670347492039751e-06
	5.751205596427911e-07
	-6.095226781313336e-16
	6.670441976552866e-06
	6.670441976552866e-06
	1.328204213280060e-05
	0.000000000000000e+00
	0.000000000000000e+00
	0.000000000000000e+00
	0.000000000000000e+00
	0.000000000000000e+00
	0.000000000000000e+00
	0.000000000000000e+00
13		-1.854999999999993e+01
	8.075936012246737e-01
	7.612628312243642e-01
	8.075936012181490e-01
	8.075936012313883e-01
	1.800000000000000e+00
	0.000000000000000e+00
	0.000000000000000e+00
	0.000000000000000e+00
	0.000000000000000e+00
	-2.666842192411423e-05
	6.714604347870941e-06
	1.323923936423195e-05
	6.129622370350767e-06
	-6.714604447763385e-06
	5.849820780255805e-07
	-6.129622277690031e-16
	6.141808430086682e-06
	-6.714586008170256e-06
	5.727775786977552e-07
	-6.141808376182306e-16
	6.714628852932947e-06
	6.714628852932947e-06
	1.323929854635253e-05
	0.000000000000000e+00
	0.000000000000000e+00
	0.000000000000000e+00
	0.000000000000000e+00
	0.000000000000000e+00
	0.000000000000000e+00
	0.000000000000000e+00
14		-1.689999999999992e+01
	8.049835262623343e-01
	7.583486465696890e-01
	8.049835262558963e-01
	8.049835262690929e-01
	1.800000000000000e+00
	0.000000000000000e+00
	0.000000000000000e+00
	0.000000000000000e+00
	0.000000000000000e+00
	-2.671359106898308e-05
	6.758678216325396e-06
	1.319645125009666e-05
	6.176245043825504e-06
	-6.758678345829076e-06
	5.824333026211958e-07
	-6.176244924111680e-16
	6.188223992329971e-06
	-6.758661087256843e-06
	5.704370955456954e-07
	-6.188223859857969e-16
	6.758593684708103e-06
	6.758593684708103e-06
	1.319655495990446e-05
	0.000000000000000e+00
	0.000000000000000e+00
	0.000000000000000e+00
	0.000000000000000e+00
	0.000000000000000e+00
	0.000000000000000e+00
	0.000000000000000e+00
15		-1.524999999999994e+01
	8.023694837415795e-01
	7.554303360215751e-01
	8.023694837352285e-01
	8.023694837483822e-01
	1.800000000000000e+00
	0.000000000000000e+00
	0.000000000000000e+00
	0.000000000000000e+00
	0.000000000000000e+00
	-2.675945870578289e-05
	6.802775031884696e-06
	1.315359809402014e-05
	6.222870838171850e-06
	-6.802775146046340e-06
	5.799043084967770e-07
	-6.222870732349693e-16
	6.234664252621427e-06
	-6.802781189773037e-06
	5.681169377750767e-07
	-6.234664158165267e-16
	6.802780561088184e-06
	6.802780561088184e-06
	1.315370035115393e-05
	0.000000000000000e+00
	0.000000000000000e+00
	0.000000000000000e+00
	0.000000000000000e+00
	0.000000000000000e+00
	0.000000000000000e+00
	0.000000000000000e+00
16		-1.359999999999997e+01
	7.997512724238550e-01
	7.525078521262739e-01
	7.997512724175913e-01
	7.997512724307020e-01
	1.800000000000000e+00
	0.000000000000000e+00
	0.000000000000000e+00
	0.000000000000000e+00
	0.000000000000000e+00
	-2.680439502000809e-05
	6.846872506895812e-06
	1.311067659700969e-05
	6.269479541867747e-06
	-6.846872622835765e-06
	5.773930815949659e-07
	-6.269479434193974e-16
	6.281067170036959e-06
	-6.846878404571685e-06
	5.658112351628325e-07
	-6.281067066468346e-16
	6.846967437468265e-06
	6.846967437468265e-06
	1.311073472010094e-05
	0.000000000000000e+00
	0.000000000000000e+00
	0.000000000000000e+00
	0.000000000000000e+00
	0.000000000000000e+00
	0.000000000000000e+00
	0.000000000000000e+00
17		-1.194999999999999e+01
	7.971289952032177e-01
	7.495812455150492e-01
	7.971289951970408e-01
	7.971289952101086e-01
	1.800000000000000e+00
	0.000000000000000e+00
	0.000000000000000e+00
	0.000000000000000e+00
	0.000000000000000e+00
	-2.684956416487694e-05
	6.890978215676585e-06
	1.306768844585313e-05
	6.316078215319195e-06
	-6.890978327989841e-06
	5.749001133022536e-07
	-6.316078110787417e-16
	6.327453898967860e-06
	-6.890975725397520e-06
	5.635218270624051e-07
	-6.327453800972112e-16
	6.890932269243422e-06
	6.890932269243422e-06
	1.306776908904794e-05
	0.000000000000000e+00
	0.000000000000000e+00
	0.000000000000000e+00
	0.000000000000000e+00
	0.000000000000000e+00
	0.000000000000000e+00
	0.000000000000000e+00
18		-1.030000000000001e+01
	7.945027439022110e-01
	7.466505630889453e-01
	7.945027438961214e-01
	7.945027439091461e-01
	1.800000000000000e+00
	0.000000000000000e+00
	0.000000000000000e+00
	0.000000000000000e+00
	0.000000000000000e+00
	-2.689519897103310e-05
	6.935098668589231e-06
	1.302463514583806e-05
	6.362672993746797e-06
	-6.935098777600778e-06
	5.724257844902486e-07
	-6.362672892107693e-16
	6.373842714289476e-06
	-6.935092924730247e-06
	5.612502110781560e-07
	-6.373842621167566e-16
	6.935119145623503e-06
	6.935119145623503e-06
	1.302469243569249e-05
	0.000000000000000e+00
	0.000000000000000e+00
	0.000000000000000e+00
	0.000000000000000e+00
	0.000000000000000e+00
	0.000000000000000e+00
	0.000000000000000e+00
19		-8.650000000000034e+00
	7.918729447419756e-01
	7.437159597834192e-01
	7.918729447359732e-01
	7.918729447489549e-01
	1.800000000000000e+00
	0.000000000000000e+00
	0.000000000000000e+00
	0.000000000000000e+00
	0.000000000000000e+00
	-2.694036811590195e-05
	6.979273182399472e-06
	1.298152368419628e-05
	6.409300212365868e-06
	-6.979273282595516e-06
	5.699730708705781e-07
	-6.409300118753423e-16
	6.420343808650034e-06
	-6.979349677849382e-06
	5.590058698413817e-07
	-6.420343734663131e-16
	6.979306022003584e-06
	6.979306022003584e-06
	1.298161578233703e-05
	0.000000000000000e+00
	0.000000000000000e+00
	0.000000000000000e+00
	0.000000000000000e+00
	0.000000000000000e+00
	0.000000000000000e+00
	0.000000000000000e+00
20		-7.000000000000057e+00
	7.892385160477510e-01
	7.407771022244511e-01
	7.892385160418359e-01
	7.892385160547744e-01
	1.800000000000000e+00
	0.000000000000000e+00
	0.000000000000000e+00
	0.000000000000000e+00
	0.000000000000000e+00
	-2.698530443012714e-05
	7.023393307724612e-06
	1.293833632855469e-05
	6.455860274832577e-06
	-7.023393425258005e-06
	5.675331510710137e-07
	-6.455860165326191e-16
	6.466653613165854e-06
	-7.023415608068842e-06
	5.567619955496539e-07
	-6.466653488598102e-16
	7.023381876081203e-06
	7.023381876081203e-06
	1.293842810667911e-05
	0.000000000000000e+00
	0.000000000000000e+00
	0.000000000000000e+00
	0.000000000000000e+00
	0.000000000000000e+00
	0.000000000000000e+00
	0.000000000000000e+00
21		-5.350000000000080e+00
	7.866008325074657e-01
	7.378344518838855e-01
	7.866008325016383e-01
	7.866008325145334e-01
	1.800000000000000e+00
	0.000000000000000e+00
	0.000000000000000e+00
	0.000000000000000e+00
	0.000000000000000e+00
	-2.703070640563965e-05
	7.067591394721766e-06
	1.289509561478096e-05
	6.502475113894221e-06
	-7.067591487123719e-06
	5.651163738797455e-07
	-6.502475027170967e-16
	6.513142910860168e-06
	-7.067693672309923e-06
	5.545507621010690e-07
	-6.513142849149771e-16
	7.067679774763747e-06
	7.067679774763747e-06
	1.289512940871873e-05
	0.000000000000000e+00
	0.000000000000000e+00
	0.000000000000000e+00
	0.000000000000000e+00
	0.000000000000000e+00
	0.000000000000000e+00
	0.000000000000000e+00
22		-3.700000000000102e+00
	7.839582122508899e-01
	7.348874808639743e-01
	7.839582122451497e-01
	7.839582122580016e-01
	1.800000000000000e+00
	0.000000000000000e+00
	0.000000000000000e+00
	0.000000000000000e+00
	0.000000000000000e+00
	-2.707494422793388e-05
	7.111700201002267e-06
	1.285177397123196e-05
	6.548990824276489e-06
	-7.111700320579409e-06
	5.627094969578194e-07
	-6.548990712525460e-16
	6.559342846923729e-06
	-7.111674577389954e-06
	5.523317311221593e-07
	-6.559342707032796e-16
	7.111644606538903e-06
	7.111644606538903e-06
	1.285183071075835e-05
	0.000000000000000e+00
	0.000000000000000e+00
	0.000000000000000e+00
	0.000000000000000e+00
	0.000000000000000e+00
	0.000000000000000e+00
	0.000000000000000e+00
23		-2.050000000000125e+00
	7.813126879291010e-01
	7.319368631305038e-01
	7.813126879234484e-01
	7.813126879362570e-01
	1.800000000000000e+00
	0.000000000000000e+00
	0.000000000000000e+00
	0.000000000000000e+00
	0.000000000000000e+00
	-2.712034620344639e-05
	7.155916637477863e-06
	1.280840472005653e-05
	6.595589048400055e-06
	-7.155916722020022e-06
	5.603276742795255e-07
	-6.595588969006243e-16
	6.605805849907834e-06
	-7.155957739930970e-06
	5.501518906837178e-07
	-6.605805801150472e-16
	7.155942505221446e-06
	7.155942505221446e-06
	1.280853201279797e-05
	0.000000000000000e+00
	0.000000000000000e+00
	0.000000000000000e+00
	0.000000000000000e+00
	0.000000000000000e+00
	0.000000000000000e+00
	0.000000000000000e+00
24		-4.000000000001478e-01
	7.786624659460706e-01
	7.289820343452400e-01
	7.786624659405057e-01
	7.786624659532707e-01
	1.800000000000000e+00
	0.000000000000000e+00
	0.000000000000000e+00
	0.000000000000000e+00
	0.000000000000000e+00
	-2.716528251767159e-05
	7.200062550845011e-06
	1.276495845804108e-05
	6.642105625947784e-06
	-7.200062663025088e-06
	5.579570377415140e-07
	-6.642105520859379e-16
	6.652031907188097e-06
	-7.200000758689894e-06
	5.479688521669998e-07
	-6.652031781851850e-16
	7.200129381601528e-06
	7.200129381601528e-06
	1.276501127023266e-05
	0.000000000000000e+00
	0.000000000000000e+00
	0.000000000000000e+00
	0.000000000000000e+00
	0.000000000000000e+00
	0.000000000000000e+00
	0.000000000000000e+00
25		1.249999999999829e+00
	7.760092095547069e-01
	7.260235484803559e-01
	7.760092095492296e-01
	7.760092095619512e-01
	1.800000000000000e+00
	0.000000000000000e+00
	0.000000000000000e+00
	0.000000000000000e+00
	0.000000000000000e+00
	-2.721021883189678e-05
	7.244298706427678e-06
	1.272146245162671e-05
	6.688689116923703e-06
	-7.244298790450437e-06
	5.556096741956034e-07
	-6.688689037900319e-16
	6.698472680826581e-06
	-7.244292863477617e-06
	5.458201833208829e-07
	-6.698472628268933e-16
	7.244316257981609e-06
	7.244316257981609e-06
	1.272160154996982e-05
	0.000000000000000e+00
	0.000000000000000e+00
	0.000000000000000e+00
	0.000000000000000e+00
	0.000000000000000e+00
	0.000000000000000e+00
	0.000000000000000e+00
26		2.899999999999807e+00
